hour, t(sec), V1, VAngle1, V2, VAngle2, I1, IAngle1, I2, IAngle2
0, 300.00000, 239.703, -150.013, 0, 0, 0.22562, -161.491, 0.22562, 18.5087
0, 600.00000, 239.667, -149.966, 0, 0, 0.225653, -161.445, 0.225653, 18.555
0, 900.00000, 239.425, -149.967, 0, 0, 0.374193, -161.446, 0.374193, 18.5543
0, 1200.00000, 239.373, -149.977, 0, 0, 0.967665, -161.455, 0.967665, 18.5446
0, 1500.00000, 239.51, -150, 0, 0, 0.967115, -161.478, 0.967115, 18.5219
0, 1800.00000, 239.444, -150.01, 0, 0, 0.967375, -161.489, 0.967375, 18.5114
0, 2100.00000, 239.493, -149.998, 0, 0, 0.96718, -161.477, 0.96718, 18.5233
0, 2400.00000, 239.422, -149.99, 0, 0, 0.374198, -161.468, 0.374198, 18.5316
0, 2700.00000, 239.564, -150.034, 0, 0, 0.22575, -161.512, 0.22575, 18.4883
0, 3000.00000, 239.549, -149.995, 0, 0, 0.225765, -161.474, 0.225765, 18.5264
0, 3300.00000, 239.479, -150.004, 0, 0, 0.22583, -161.483, 0.22583, 18.5173
1, 0.00000, 239.419, -149.991, 0, 0, 0.225887, -161.469, 0.225887, 18.5306
1, 300.00000, 239.305, -150, 0, 0, 0.225993, -161.478, 0.225993, 18.5219
1, 600.00000, 239.467, -149.995, 0, 0, 0.225842, -161.473, 0.225842, 18.5266
1, 900.00000, 239.43, -150.002, 0, 0, 0.669106, -161.481, 0.669106, 18.5194
1, 1200.00000, 237.522, -149.979, 0, 0, 0.786174, -161.457, 0.786174, 18.5429
1, 1500.00000, 239.441, -150.011, 0, 0, 0.779929, -161.489, 0.779929, 18.5109
1, 1800.00000, 239.386, -150.023, 0, 0, 0.780056, -161.502, 0.780056, 18.4984
1, 2100.00000, 239.385, -150.037, 0, 0, 0.336746, -161.515, 0.336746, 18.4849
1, 2400.00000, 239.209, -150.044, 0, 0, 0.226084, -161.522, 0.226084, 18.4778
1, 2700.00000, 239.089, -150.036, 0, 0, 0.226198, -161.514, 0.226198, 18.4859
1, 3000.00000, 239.005, -150.026, 0, 0, 0.374852, -161.505, 0.374852, 18.4952
1, 3300.00000, 238.953, -150.038, 0, 0, 0.969365, -161.516, 0.969365, 18.4837
2, 0.00000, 239.231, -150.045, 0, 0, 0.968246, -161.524, 0.968246, 18.4762
2, 300.00000, 239.7, -150.035, 0, 0, 0.966354, -161.513, 0.966354, 18.4866
2, 600.00000, 239.643, -150.019, 0, 0, 0.966574, -161.498, 0.966574, 18.5023
2, 900.00000, 239.618, -150.024, 0, 0, 0.484614, -161.502, 0.484614, 18.4976
2, 1200.00000, 239.573, -150.024, 0, 0, 0.779447, -161.502, 0.779447, 18.4979
2, 1500.00000, 239.546, -150.015, 0, 0, 0.779535, -161.494, 0.779535, 18.5063
2, 1800.00000, 239.77, -149.948, 0, 0, 0.778814, -161.427, 0.778814, 18.5733
2, 2100.00000, 239.697, -150.029, 0, 0, 0.66836, -161.508, 0.66836, 18.4924
2, 2400.00000, 239.753, -150.031, 0, 0, 0.225572, -161.51, 0.225572, 18.4903
2, 2700.00000, 239.61, -150.023, 0, 0, 0.225706, -161.501, 0.225706, 18.4989
2, 3000.00000, 239.597, -150.04, 0, 0, 0.225719, -161.519, 0.225719, 18.4814
2, 3300.00000, 239.572, -150.065, 0, 0, 0.225743, -161.544, 0.225743, 18.4563
3, 0.00000, 239.549, -150.066, 0, 0, 0.225764, -161.545, 0.225764, 18.4552
3, 300.00000, 239.761, -150.058, 0, 0, 0.225566, -161.536, 0.225566, 18.464
3, 600.00000, 239.81, -150.06, 0, 0, 0.669749, -161.539, 0.669749, 18.4612
3, 900.00000, 239.688, -150.029, 0, 0, 0.966392, -161.508, 0.966392, 18.4923
3, 1200.00000, 239.693, -150.009, 0, 0, 0.966374, -161.488, 0.966374, 18.5125
3, 1500.00000, 239.602, -150.013, 0, 0, 0.966736, -161.491, 0.966736, 18.5086
3, 1800.00000, 239.711, -150.028, 0, 0, 0.818165, -161.506, 0.818165, 18.4942
3, 2100.00000, 239.989, -150.033, 0, 0, 0.225351, -161.512, 0.225351, 18.4883
3, 2400.00000, 239.884, -150.038, 0, 0, 0.225448, -161.516, 0.225448, 18.4839
3, 2700.00000, 239.787, -150.032, 0, 0, 0.778752, -161.511, 0.778752, 18.4893
3, 3000.00000, 239.715, -150.018, 0, 0, 0.778985, -161.497, 0.778985, 18.5034
3, 3300.00000, 239.568, -150.019, 0, 0, 0.779461, -161.498, 0.779461, 18.5023
4, 0.00000, 239.636, -150.018, 0, 0, 0.779244, -161.497, 0.779244, 18.5033
4, 300.00000, 239.97, -150.038, 0, 0, 0.225369, -161.516, 0.225369, 18.4837
4, 600.00000, 239.977, -150.043, 0, 0, 0.225362, -161.522, 0.225362, 18.4784
4, 900.00000, 240.06, -150.036, 0, 0, 0.225284, -161.514, 0.225284, 18.486
4, 1200.00000, 239.96, -150.037, 0, 0, 0.225378, -161.516, 0.225378, 18.4842
4, 1500.00000, 239.966, -150.024, 0, 0, 0.225372, -161.502, 0.225372, 18.4979
4, 1800.00000, 239.946, -150.025, 0, 0, 0.225391, -161.503, 0.225391, 18.4966
4, 2100.00000, 240.008, -150.032, 0, 0, 0.225333, -161.511, 0.225333, 18.4894
4, 2400.00000, 239.787, -150.01, 0, 0, 0.8179, -161.489, 0.8179, 18.5111
4, 2700.00000, 239.771, -150.003, 0, 0, 0.966057, -161.482, 0.966057, 18.5183
4, 3000.00000, 239.871, -150, 0, 0, 0.965658, -161.479, 0.965658, 18.5213
4, 3300.00000, 239.963, -149.983, 0, 0, 0.965284, -161.461, 0.965284, 18.5391
5, 0.00000, 239.918, -149.981, 0, 0, 1.11177, -161.459, 1.11177, 18.5408
5, 300.00000, 240.163, -149.988, 0, 0, 0.777533, -161.466, 0.777533, 18.5336
5, 600.00000, 240.146, -149.971, 0, 0, 0.777587, -161.449, 0.777587, 18.5511
5, 900.00000, 240.165, -149.963, 0, 0, 0.777528, -161.441, 0.777528, 18.5589
5, 1200.00000, 240.402, -149.953, 0, 0, 0.335324, -161.431, 0.335324, 18.5687
5, 1500.00000, 240.486, -149.937, 0, 0, 0.224885, -161.416, 0.224885, 18.5845
5, 1800.00000, 240.742, -149.927, 0, 0, 0.224646, -161.405, 0.224646, 18.5949
5, 2100.00000, 241.127, -149.879, 0, 0, 0.224286, -161.358, 0.224286, 18.6422
5, 2400.00000, 241.221, -149.876, 0, 0, 0.224199, -161.354, 0.224199, 18.6459
5, 2700.00000, 241.05, -149.94, 0, 0, 0.224359, -161.418, 0.224359, 18.582
5, 3000.00000, 241.297, -149.881, 0, 0, 0.224129, -161.36, 0.224129, 18.64
5, 3300.00000, 241.338, -149.921, 0, 0, 0.812647, -161.399, 0.812647, 18.6008
6, 0.00000, 241.672, -149.982, 0, 0, 0.958457, -161.459, 0.958457, 18.5413
6, 300.00000, 242.846, -149.884, 0, 0, 0.953782, -161.363, 0.953782, 18.6374
6, 600.00000, 243.042, -149.917, 0, 0, 1.17137, -161.395, 1.17137, 18.6054
6, 900.00000, 244.569, -149.719, 0, 0, 1.19911, -161.197, 1.19911, 18.8028
6, 1200.00000, 243.637, -149.703, 0, 0, 0.766491, -161.183, 0.766491, 18.8175
6, 1500.00000, 243.367, -149.643, 0, 0, 0.76731, -161.122, 0.76731, 18.8777
6, 1800.00000, 243.854, -149.545, 0, 0, 0.548157, -161.024, 0.548157, 18.9755
6, 2100.00000, 243.391, -149.675, 0, 0, 0.222205, -161.153, 0.222205, 18.8475
6, 2400.00000, 244.001, -149.712, 0, 0, 0.221636, -161.189, 0.221636, 18.8108
6, 2700.00000, 245.175, -149.667, 0, 0, 0.220563, -161.145, 0.220563, 18.8549
6, 3000.00000, 244.831, -149.856, 0, 0, 0.220902, -161.332, 0.220902, 18.6683
6, 3300.00000, 243.845, -149.943, 0, 0, 0.221798, -161.42, 0.221798, 18.58
7, 0.00000, 244.553, -149.763, 0, 0, 0.221137, -161.243, 0.221137, 18.7566
7, 300.00000, 245.217, -149.662, 0, 0, 0.220533, -161.141, 0.220533, 18.8586
7, 600.00000, 244.33, -149.787, 0, 0, 0.221357, -161.263, 0.221357, 18.7369
7, 900.00000, 245.952, -149.617, 0, 0, 0.219888, -161.096, 0.219888, 18.9043
7, 1200.00000, 245.006, -149.52, 0, 0, 0.32902, -160.999, 0.32902, 19.0011
7, 1500.00000, 246.853, -149.387, 0, 0, 1.33188, -160.865, 1.33188, 19.1349
7, 1800.00000, 247.794, -149.285, 0, 0, 1.47012, -160.763, 1.47012, 19.2369
7, 2100.00000, 247.405, -149.213, 0, 0, 1.47242, -160.692, 1.47242, 19.3082
7, 2400.00000, 249.174, -149.057, 0, 0, 1.35552, -160.535, 1.35552, 19.4648
7, 2700.00000, 247.227, -149.411, 0, 0, 0.64965, -160.889, 0.64965, 19.1107
7, 3000.00000, 242.497, -150.167, 0, 0, 0.22302, -161.645, 0.22302, 18.3547
7, 3300.00000, 245.524, -149.644, 0, 0, 0.220272, -161.123, 0.220272, 18.8772
8, 0.00000, 246.514, -149.297, 0, 0, 0.219386, -160.776, 0.219386, 19.2241
8, 300.00000, 247.61, -149.094, 0, 0, 0.218416, -160.572, 0.218416, 19.4277
8, 600.00000, 246.897, -149.199, 0, 0, 0.219043, -160.677, 0.219043, 19.3227
8, 900.00000, 246.613, -149.415, 0, 0, 0.219297, -160.893, 0.219297, 19.1068
8, 1200.00000, 247.612, -149.732, 0, 0, 0.218414, -161.21, 0.218414, 18.7901
8, 1500.00000, 245.046, -149.559, 0, 0, 0.220699, -161.038, 0.220699, 18.9624
8, 1800.00000, 246.946, -149.335, 0, 0, 0.219003, -160.813, 0.219003, 19.1867
8, 2100.00000, 242.238, -149.656, 0, 0, 0.661349, -161.134, 0.661349, 18.8659
8, 2400.00000, 238.872, -149.919, 0, 0, 0.781735, -161.397, 0.781735, 18.6028
8, 2700.00000, 243.038, -149.459, 0, 0, 6.28106, -160.938, 6.28106, 19.0621
8, 3000.00000, 246.634, -149.207, 0, 0, 6.62145, -160.685, 6.62145, 19.3147
8, 3300.00000, 248.184, -149.027, 0, 0, 6.43867, -160.506, 6.43867, 19.4937
9, 0.00000, 248.46, -148.952, 0, 0, 6.32471, -160.431, 6.32471, 19.5694
9, 300.00000, 248.574, -149.003, 0, 0, 6.32178, -160.482, 6.32178, 19.5184
9, 600.00000, 248.921, -149.174, 0, 0, 6.17032, -160.652, 6.17032, 19.3483
9, 900.00000, 248.99, -149.02, 0, 0, 5.59812, -160.499, 5.59812, 19.5015
9, 1200.00000, 248.24, -148.978, 0, 0, 5.61497, -160.457, 5.61497, 19.5431
9, 1500.00000, 248.207, -148.922, 0, 0, 5.61586, -160.4, 5.61586, 19.5997
9, 1800.00000, 246.908, -148.659, 0, 0, 5.6453, -160.138, 5.6453, 19.862
9, 2100.00000, 247.487, -149.096, 0, 0, 5.6321, -160.573, 5.6321, 19.4268
9, 2400.00000, 248.027, -149.085, 0, 0, 5.61989, -160.564, 5.61989, 19.4364
9, 2700.00000, 249.448, -149.156, 0, 0, 0.216806, -160.635, 0.216806, 19.3653
9, 3000.00000, 249.797, -149.134, 0, 0, 0.216503, -160.613, 0.216503, 19.3872
9, 3300.00000, 251.478, -148.905, 0, 0, 0.426058, -160.384, 0.426058, 19.6163
10, 0.00000, 245.508, -149.409, 0, 0, 1.14297, -160.887, 1.14297, 19.1127
10, 300.00000, 248.559, -149.273, 0, 0, 1.92542, -160.752, 1.92542, 19.2484
10, 600.00000, 252.634, -148.858, 0, 0, 1.89441, -160.337, 1.89441, 19.6626
10, 900.00000, 251.289, -149.01, 0, 0, 1.6933, -160.488, 1.6933, 19.5121
10, 1200.00000, 248.282, -149.125, 0, 0, 1.39323, -160.603, 1.39323, 19.397
10, 1500.00000, 246.154, -149.294, 0, 0, 0.892919, -160.773, 0.892919, 19.2274
10, 1800.00000, 253.744, -148.653, 0, 0, 1.17022, -160.131, 1.17022, 19.8686
10, 2100.00000, 252.044, -148.752, 0, 0, 1.1781, -160.23, 1.1781, 19.7698
10, 2400.00000, 247.653, -149.254, 0, 0, 1.19899, -160.732, 1.19899, 19.2683
10, 2700.00000, 252.985, -148.714, 0, 0, 1.17381, -160.194, 1.17381, 19.8055
10, 3000.00000, 252.296, -148.811, 0, 0, 1.17694, -160.289, 1.17694, 19.7113
10, 3300.00000, 251.012, -148.901, 0, 0, 1.18295, -160.379, 1.18295, 19.6206
11, 0.00000, 253.212, -148.695, 0, 0, 1.22914, -160.174, 1.22914, 19.8256
11, 300.00000, 248.846, -149.129, 0, 0, 1.25064, -160.606, 1.25064, 19.3937
11, 600.00000, 241.92, -149.861, 0, 0, 1.28647, -161.339, 1.28647, 18.6605
11, 900.00000, 241.993, -149.973, 0, 0, 2.01811, -161.449, 2.01811, 18.5511
11, 1200.00000, 250.131, -149.071, 0, 0, 2.48456, -160.551, 2.48456, 19.449
11, 1500.00000, 253.023, -148.775, 0, 0, 2.45611, -160.255, 2.45611, 19.7451
11, 1800.00000, 252.816, -148.665, 0, 0, 2.45801, -160.144, 2.45801, 19.8562
11, 2100.00000, 253.482, -148.629, 0, 0, 2.03293, -160.107, 2.03293, 19.8928
11, 2400.00000, 253.173, -148.653, 0, 0, 1.22941, -160.132, 1.22941, 19.8679
11, 2700.00000, 251.857, -148.783, 0, 0, 1.43747, -160.261, 1.43747, 19.7388
11, 3000.00000, 242.531, -149.662, 0, 0, 1.63244, -161.14, 1.63244, 18.8599
11, 3300.00000, 245.09, -149.409, 0, 0, 1.61541, -160.887, 1.61541, 19.1128
12, 0.00000, 246.893, -149.327, 0, 0, 1.56724, -160.805, 1.56724, 19.1951
12, 300.00000, 243.882, -149.62, 0, 0, 1.67361, -161.098, 1.67361, 18.9016
12, 600.00000, 248.069, -149.23, 0, 0, 1.6454, -160.709, 1.6454, 19.2911
12, 900.00000, 250.5, -149.05, 0, 0, 1.62942, -160.529, 1.62942, 19.4707
12, 1200.00000, 244.563, -149.617, 0, 0, 1.66894, -161.096, 1.66894, 18.9045
12, 1500.00000, 243.878, -149.651, 0, 0, 3.35413, -161.13, 3.35413, 18.8699
12, 1800.00000, 243.273, -149.772, 0, 0, 5.04697, -161.248, 5.04697, 18.7516
12, 2100.00000, 245.292, -149.628, 0, 0, 2.20479, -161.106, 2.20479, 18.8936
12, 2400.00000, 247.81, -149.433, 0, 0, 2.18241, -160.911, 2.18241, 19.0886
12, 2700.00000, 252.386, -148.782, 0, 0, 2.12108, -160.262, 2.12108, 19.7375
12, 3000.00000, 250.862, -148.887, 0, 0, 2.75293, -160.365, 2.75293, 19.6349
12, 3300.00000, 244.136, -149.674, 0, 0, 5.32487, -161.152, 5.32487, 18.8483
13, 0.00000, 242.777, -149.79, 0, 0, 5.355, -161.269, 5.355, 18.7314
13, 300.00000, 246.904, -149.284, 0, 0, 5.26528, -160.763, 5.26528, 19.2373
13, 600.00000, 253.166, -148.576, 0, 0, 4.43362, -160.054, 4.43362, 19.9457
13, 900.00000, 252.622, -148.673, 0, 0, 4.38017, -160.15, 4.38017, 19.8496
13, 1200.00000, 252.305, -148.713, 0, 0, 3.60837, -160.192, 3.60837, 19.8082
13, 1500.00000, 253.1, -148.735, 0, 0, 0.665226, -160.213, 0.665226, 19.7871
13, 1800.00000, 252.857, -148.744, 0, 0, 0.665891, -160.222, 0.665891, 19.7775
13, 2100.00000, 253.837, -148.486, 0, 0, 1.12962, -159.966, 1.12962, 20.0343
13, 2400.00000, 253.294, -148.611, 0, 0, 1.24883, -160.089, 1.24883, 19.9112
13, 2700.00000, 252.231, -148.699, 0, 0, 1.25409, -160.177, 1.25409, 19.8226
13, 3000.00000, 249.394, -149.031, 0, 0, 1.80026, -160.509, 1.80026, 19.491
13, 3300.00000, 252.173, -148.807, 0, 0, 1.78049, -160.286, 1.78049, 19.7142
14, 0.00000, 252.179, -148.788, 0, 0, 2.02316, -160.267, 2.02316, 19.7335
14, 300.00000, 251.151, -148.779, 0, 0, 2.61812, -160.258, 2.61812, 19.7421
14, 600.00000, 251.604, -148.727, 0, 0, 2.28738, -160.205, 2.28738, 19.7949
14, 900.00000, 247.017, -148.971, 0, 0, 1.99932, -160.45, 1.99932, 19.5504
14, 1200.00000, 243.712, -149.13, 0, 0, 2.02647, -160.609, 2.02647, 19.3915
14, 1500.00000, 249.037, -148.862, 0, 0, 1.84063, -160.341, 1.84063, 19.6594
14, 1800.00000, 249.954, -148.861, 0, 0, 1.26556, -160.339, 1.26556, 19.6606
14, 2100.00000, 249.35, -148.952, 0, 0, 0.216891, -160.43, 0.216891, 19.5701
14, 2400.00000, 251.969, -148.936, 0, 0, 0.21464, -160.414, 0.21464, 19.5859
14, 2700.00000, 248.722, -149.066, 0, 0, 1.27179, -160.544, 1.27179, 19.4561
14, 3000.00000, 248.426, -149.113, 0, 0, 1.27333, -160.591, 1.27333, 19.4087
14, 3300.00000, 248.28, -149.207, 0, 0, 1.25271, -160.685, 1.25271, 19.3148
15, 0.00000, 249.38, -149.021, 0, 0, 1.46896, -160.5, 1.46896, 19.4999
15, 300.00000, 247.682, -148.92, 0, 0, 1.80035, -160.399, 1.80035, 19.601
15, 600.00000, 241.394, -149.639, 0, 0, 1.71875, -161.118, 1.71875, 18.8823
15, 900.00000, 240.692, -149.808, 0, 0, 1.28033, -161.286, 1.28033, 18.714
15, 1200.00000, 241.683, -149.818, 0, 0, 0.973611, -161.296, 0.973611, 18.7037
15, 1500.00000, 242.716, -149.757, 0, 0, 4.01817, -161.235, 4.01817, 18.7651
15, 1800.00000, 245.167, -149.376, 0, 0, 2.96676, -160.855, 2.96676, 19.1449
15, 2100.00000, 249.583, -148.962, 0, 0, 1.44899, -160.441, 1.44899, 19.5593
15, 2400.00000, 247.608, -149.233, 0, 0, 1.48357, -160.711, 1.48357, 19.2895
15, 2700.00000, 245.745, -149.473, 0, 0, 1.49483, -160.951, 1.49483, 19.0491
15, 3000.00000, 243.422, -149.554, 0, 0, 10.712, -161.032, 10.712, 18.9678
15, 3300.00000, 244.302, -149.506, 0, 0, 11.3343, -160.985, 11.3343, 19.0153
16, 0.00000, 246.755, -149.121, 0, 0, 15.5654, -160.6, 15.5654, 19.3996
16, 300.00000, 247.043, -149.214, 0, 0, 8.27752, -160.692, 8.27752, 19.3075
16, 600.00000, 242.469, -149.491, 0, 0, 6.85546, -160.969, 6.85546, 19.0307
16, 900.00000, 242.242, -149.463, 0, 0, 6.36086, -160.943, 6.36086, 19.0573
16, 1200.00000, 243.252, -149.437, 0, 0, 6.3339, -160.914, 6.3339, 19.0856
16, 1500.00000, 245.014, -149.412, 0, 0, 6.07213, -160.89, 6.07213, 19.1096
16, 1800.00000, 244.855, -149.379, 0, 0, 5.75104, -160.858, 5.75104, 19.1424
16, 2100.00000, 241.381, -149.811, 0, 0, 5.79827, -161.29, 5.79827, 18.7103
16, 2400.00000, 241.833, -149.506, 0, 0, 5.7638, -160.985, 5.7638, 19.0151
16, 2700.00000, 237.875, -149.765, 0, 0, 6.26807, -161.243, 6.26807, 18.7568
16, 3000.00000, 238.428, -149.595, 0, 0, 7.16269, -161.071, 7.16269, 18.9294
16, 3300.00000, 242.775, -149.912, 0, 0, 6.3694, -161.39, 6.3694, 18.6098
17, 0.00000, 243.652, -150.081, 0, 0, 1.52523, -161.555, 1.52523, 18.4447
17, 300.00000, 243.125, -150.326, 0, 0, 1.4228, -161.804, 1.4228, 18.1959
17, 600.00000, 242.102, -150.151, 0, 0, 1.42881, -161.629, 1.42881, 18.3708
17, 900.00000, 240.882, -150.055, 0, 0, 0.698957, -161.535, 0.698957, 18.4648
17, 1200.00000, 239.597, -150.284, 0, 0, 0.702711, -161.763, 0.702711, 18.2374
17, 1500.00000, 239.32, -150.109, 0, 0, 0.763218, -161.588, 0.763218, 18.4123
17, 1800.00000, 239.671, -150.19, 0, 0, 0.762099, -161.667, 0.762099, 18.3327
17, 2100.00000, 238.083, -150.099, 0, 0, 1.10141, -161.579, 1.10141, 18.4212
17, 2400.00000, 239.871, -150.312, 0, 0, 1.31448, -161.791, 1.31448, 18.2094
17, 2700.00000, 239.109, -150.181, 0, 0, 6.92195, -161.659, 6.92195, 18.341
17, 3000.00000, 240.012, -150.111, 0, 0, 6.89599, -161.589, 6.89599, 18.4113
17, 3300.00000, 238.273, -150.054, 0, 0, 6.61218, -161.532, 6.61218, 18.4676
18, 0.00000, 239.743, -150.018, 0, 0, 7.09103, -161.496, 7.09103, 18.5041
18, 300.00000, 238.216, -149.978, 0, 0, 11.075, -161.458, 11.075, 18.542
18, 600.00000, 237.545, -149.744, 0, 0, 17.0318, -161.221, 17.0318, 18.7789
18, 900.00000, 238.492, -149.619, 0, 0, 17.0313, -161.098, 17.0313, 18.9023
18, 1200.00000, 237.383, -149.662, 0, 0, 16.7061, -161.143, 16.7061, 18.8572
18, 1500.00000, 235.678, -149.908, 0, 0, 16.4657, -161.386, 16.4657, 18.6142
18, 1800.00000, 235.804, -149.831, 0, 0, 21.6711, -161.308, 21.6711, 18.6922
18, 2100.00000, 234.718, -150.125, 0, 0, 6.53844, -161.603, 6.53844, 18.397
18, 2400.00000, 238.843, -150.107, 0, 0, 7.37827, -161.586, 7.37827, 18.4145
18, 2700.00000, 240.019, -150.265, 0, 0, 1.8706, -161.743, 1.8706, 18.2569
18, 3000.00000, 239.55, -150.179, 0, 0, 1.88449, -161.658, 1.88449, 18.3423
18, 3300.00000, 240.002, -150.211, 0, 0, 1.9218, -161.688, 1.9218, 18.3115
19, 0.00000, 240.417, -150.304, 0, 0, 1.47702, -161.782, 1.47702, 18.2175
19, 300.00000, 240.819, -150.229, 0, 0, 1.36438, -161.708, 1.36438, 18.292
19, 600.00000, 240.492, -150.351, 0, 0, 1.36626, -161.827, 1.36626, 18.1726
19, 900.00000, 239.91, -150.51, 0, 0, 1.36956, -161.988, 1.36956, 18.0118
19, 1200.00000, 240.596, -150.482, 0, 0, 1.36567, -161.96, 1.36567, 18.0404
19, 1500.00000, 238.62, -150.147, 0, 0, 1.37696, -161.626, 1.37696, 18.3744
19, 1800.00000, 235.143, -150.144, 0, 0, 1.28448, -161.623, 1.28448, 18.3772
19, 2100.00000, 233.017, -149.859, 0, 0, 1.31897, -161.337, 1.31897, 18.6626
19, 2400.00000, 237.056, -149.957, 0, 0, 1.38606, -161.435, 1.38606, 18.5645
19, 2700.00000, 238.944, -149.981, 0, 0, 1.3751, -161.46, 1.3751, 18.5404
19, 3000.00000, 239.511, -150.296, 0, 0, 1.37184, -161.775, 1.37184, 18.2253
19, 3300.00000, 239.883, -150.332, 0, 0, 1.92271, -161.81, 1.92271, 18.19
20, 0.00000, 239.224, -150.269, 0, 0, 2.13268, -161.748, 2.13268, 18.2517
20, 300.00000, 239.369, -150.161, 0, 0, 2.04967, -161.639, 2.04967, 18.3606
20, 600.00000, 239.388, -150.145, 0, 0, 2.46888, -161.623, 2.46888, 18.3766
20, 900.00000, 239.533, -150.14, 0, 0, 2.18965, -161.618, 2.18965, 18.3817
20, 1200.00000, 238.212, -150.419, 0, 0, 7.34212, -161.897, 7.34212, 18.1029
20, 1500.00000, 238.556, -150.377, 0, 0, 2.60922, -161.856, 2.60922, 18.1438
20, 1800.00000, 238.513, -150.414, 0, 0, 2.31194, -161.893, 2.31194, 18.1073
20, 2100.00000, 238.778, -150.201, 0, 0, 1.97263, -161.68, 1.97263, 18.3202
20, 2400.00000, 238.335, -150.313, 0, 0, 2.02423, -161.791, 2.02423, 18.2088
20, 2700.00000, 238.02, -150.273, 0, 0, 1.86911, -161.752, 1.86911, 18.2476
20, 3000.00000, 238.756, -150.364, 0, 0, 1.53261, -161.843, 1.53261, 18.1573
20, 3300.00000, 238.872, -150.427, 0, 0, 1.46949, -161.906, 1.46949, 18.0945
21, 0.00000, 237.942, -150.484, 0, 0, 1.50605, -161.962, 1.50605, 18.0382
21, 300.00000, 235.29, -150.404, 0, 0, 1.53348, -161.882, 1.53348, 18.1177
21, 600.00000, 236.517, -150.561, 0, 0, 1.66102, -162.038, 1.66102, 17.9615
21, 900.00000, 236.203, -150.438, 0, 0, 1.63729, -161.917, 1.63729, 18.083
21, 1200.00000, 236.077, -150.63, 0, 0, 2.08424, -162.109, 2.08424, 17.8915
21, 1500.00000, 237.809, -150.52, 0, 0, 2.19264, -161.998, 2.19264, 18.002
21, 1800.00000, 236.447, -150.426, 0, 0, 11.1273, -161.905, 11.1273, 18.0953
