hour, t(sec), V1, VAngle1, V2, VAngle2, I1, IAngle1, I2, IAngle2
0, 300.00000, 239.709, -150.004, 0, 0, 0.195816, -161.483, 0.195816, 18.5172
0, 600.00000, 239.673, -149.957, 0, 0, 0.195845, -161.435, 0.195845, 18.5647
0, 900.00000, 239.442, -149.959, 0, 0, 0.196033, -161.437, 0.196033, 18.5625
0, 1200.00000, 239.474, -149.97, 0, 0, 0.196008, -161.448, 0.196008, 18.5522
0, 1500.00000, 239.572, -149.987, 0, 0, 0.195928, -161.465, 0.195928, 18.5349
0, 1800.00000, 239.5, -149.997, 0, 0, 0.195986, -161.475, 0.195986, 18.5246
0, 2100.00000, 239.537, -149.978, 0, 0, 0.195957, -161.456, 0.195957, 18.5439
0, 2400.00000, 239.393, -149.958, 0, 0, 0.196073, -161.436, 0.196073, 18.5636
0, 2700.00000, 239.439, -150.014, 0, 0, 0.196036, -161.492, 0.196036, 18.5081
0, 3000.00000, 239.506, -149.966, 0, 0, 0.195982, -161.444, 0.195982, 18.5557
0, 3300.00000, 239.446, -149.981, 0, 0, 0.196031, -161.46, 0.196031, 18.5404
1, 0.00000, 239.378, -149.978, 0, 0, 0.196086, -161.456, 0.196086, 18.544
1, 300.00000, 239.27, -149.994, 0, 0, 0.196174, -161.473, 0.196174, 18.5272
1, 600.00000, 239.418, -149.988, 0, 0, 0.196055, -161.466, 0.196055, 18.5335
1, 900.00000, 239.424, -149.997, 0, 0, 0.196048, -161.475, 0.196048, 18.5249
1, 1200.00000, 236.852, -149.962, 0, 0, 0.198176, -161.441, 0.198176, 18.5593
1, 1500.00000, 239.454, -149.993, 0, 0, 0.196038, -161.471, 0.196038, 18.5288
1, 1800.00000, 239.398, -150.009, 0, 0, 0.19607, -161.487, 0.19607, 18.513
1, 2100.00000, 239.315, -150.017, 0, 0, 0.196138, -161.496, 0.196138, 18.5044
1, 2400.00000, 239.183, -150.026, 0, 0, 0.196246, -161.504, 0.196246, 18.4956
1, 2700.00000, 239.056, -150.024, 0, 0, 0.19635, -161.502, 0.19635, 18.4978
1, 3000.00000, 238.958, -150.014, 0, 0, 0.196431, -161.493, 0.196431, 18.5074
1, 3300.00000, 238.966, -150.025, 0, 0, 0.196424, -161.503, 0.196424, 18.4968
2, 0.00000, 239.231, -150.034, 0, 0, 0.196208, -161.512, 0.196208, 18.4882
2, 300.00000, 239.781, -150.022, 0, 0, 0.195759, -161.501, 0.195759, 18.4993
2, 600.00000, 239.728, -150.014, 0, 0, 0.570373, -161.493, 0.570373, 18.5074
2, 900.00000, 239.696, -150.02, 0, 0, 0.664106, -161.498, 0.664106, 18.5018
2, 1200.00000, 239.698, -150.024, 0, 0, 0.664102, -161.503, 0.664102, 18.4973
2, 1500.00000, 239.672, -150.021, 0, 0, 0.570507, -161.5, 0.570507, 18.5002
2, 1800.00000, 239.75, -149.99, 0, 0, 0.195783, -161.469, 0.195783, 18.5314
2, 2100.00000, 239.764, -150.03, 0, 0, 0.195771, -161.508, 0.195771, 18.4917
2, 2400.00000, 239.75, -150.023, 0, 0, 0.195782, -161.502, 0.195782, 18.4982
2, 2700.00000, 239.604, -150.016, 0, 0, 0.195901, -161.494, 0.195901, 18.506
2, 3000.00000, 239.621, -150.032, 0, 0, 0.195888, -161.51, 0.195888, 18.4901
2, 3300.00000, 239.614, -150.048, 0, 0, 0.195894, -161.526, 0.195894, 18.4741
3, 0.00000, 239.57, -150.049, 0, 0, 0.195929, -161.527, 0.195929, 18.473
3, 300.00000, 239.755, -150.045, 0, 0, 0.195779, -161.523, 0.195779, 18.4769
3, 600.00000, 239.807, -150.047, 0, 0, 0.195736, -161.526, 0.195736, 18.4742
3, 900.00000, 239.75, -150.027, 0, 0, 0.195782, -161.506, 0.195782, 18.4944
3, 1200.00000, 239.788, -150.005, 0, 0, 0.195751, -161.483, 0.195751, 18.5166
3, 1500.00000, 239.715, -150.008, 0, 0, 0.19581, -161.486, 0.19581, 18.5138
3, 1800.00000, 239.811, -150.025, 0, 0, 0.195733, -161.503, 0.195733, 18.4972
3, 2100.00000, 240.011, -150.027, 0, 0, 0.19557, -161.506, 0.19557, 18.4942
3, 2400.00000, 239.859, -150.029, 0, 0, 0.195692, -161.507, 0.195692, 18.4929
3, 2700.00000, 239.835, -150.028, 0, 0, 0.195713, -161.506, 0.195713, 18.494
3, 3000.00000, 239.759, -150.014, 0, 0, 0.195775, -161.492, 0.195775, 18.508
3, 3300.00000, 239.612, -150.004, 0, 0, 0.195894, -161.483, 0.195894, 18.5171
4, 0.00000, 239.719, -150.007, 0, 0, 0.195808, -161.486, 0.195808, 18.5143
4, 300.00000, 239.995, -150.033, 0, 0, 0.195583, -161.511, 0.195583, 18.4889
4, 600.00000, 239.961, -150.039, 0, 0, 0.476268, -161.517, 0.476268, 18.4831
4, 900.00000, 240.016, -150.037, 0, 0, 0.663222, -161.516, 0.663222, 18.4842
4, 1200.00000, 239.871, -150.039, 0, 0, 0.663622, -161.517, 0.663622, 18.483
4, 1500.00000, 239.885, -150.012, 0, 0, 0.663582, -161.49, 0.663582, 18.5098
4, 1800.00000, 239.901, -150.007, 0, 0, 0.195659, -161.485, 0.195659, 18.5147
4, 2100.00000, 239.959, -150.018, 0, 0, 0.195611, -161.496, 0.195611, 18.5041
4, 2400.00000, 239.895, -150.007, 0, 0, 0.195663, -161.486, 0.195663, 18.5143
4, 2700.00000, 239.898, -150.004, 0, 0, 0.195661, -161.483, 0.195661, 18.5174
4, 3000.00000, 239.985, -150.007, 0, 0, 0.195591, -161.485, 0.195591, 18.515
4, 3300.00000, 240.057, -149.987, 0, 0, 0.195532, -161.465, 0.195532, 18.5349
5, 0.00000, 239.934, -149.982, 0, 0, 0.195632, -161.461, 0.195632, 18.5391
5, 300.00000, 240.102, -149.986, 0, 0, 0.195496, -161.464, 0.195496, 18.5361
5, 600.00000, 240.096, -149.972, 0, 0, 0.1955, -161.451, 0.1955, 18.5495
5, 900.00000, 240.158, -149.966, 0, 0, 0.19545, -161.444, 0.19545, 18.556
5, 1200.00000, 240.38, -149.956, 0, 0, 0.195269, -161.434, 0.195269, 18.5662
5, 1500.00000, 240.459, -149.945, 0, 0, 0.195205, -161.423, 0.195205, 18.5768
5, 1800.00000, 240.666, -149.931, 0, 0, 0.195037, -161.409, 0.195037, 18.5909
5, 2100.00000, 240.951, -149.886, 0, 0, 0.194806, -161.365, 0.194806, 18.6354
5, 2400.00000, 241.066, -149.884, 0, 0, 0.194713, -161.363, 0.194713, 18.6373
5, 2700.00000, 240.934, -149.93, 0, 0, 0.19482, -161.408, 0.19482, 18.5919
5, 3000.00000, 241.288, -149.864, 0, 0, 0.194534, -161.343, 0.194534, 18.6574
5, 3300.00000, 241.343, -149.939, 0, 0, 0.19449, -161.417, 0.19449, 18.583
6, 0.00000, 241.719, -150.036, 0, 0, 0.194187, -161.513, 0.194187, 18.487
6, 300.00000, 242.814, -149.968, 0, 0, 0.193303, -161.447, 0.193303, 18.5534
6, 600.00000, 243.042, -150.037, 0, 0, 0.19313, -161.515, 0.19313, 18.4855
6, 900.00000, 244.353, -149.847, 0, 0, 0.242206, -161.326, 0.242206, 18.6742
6, 1200.00000, 243.395, -149.778, 0, 0, 0.561809, -161.257, 0.561809, 18.743
6, 1500.00000, 243.109, -149.695, 0, 0, 1.10811, -161.174, 1.10811, 18.8263
6, 1800.00000, 243.585, -149.597, 0, 0, 1.14947, -161.076, 1.14947, 18.9239
6, 2100.00000, 243.141, -149.727, 0, 0, 1.08111, -161.204, 1.08111, 18.7957
6, 2400.00000, 243.773, -149.806, 0, 0, 0.481361, -161.282, 0.481361, 18.7176
6, 2700.00000, 244.859, -149.799, 0, 0, 0.529206, -161.277, 0.529206, 18.7233
6, 3000.00000, 244.534, -150, 0, 0, 0.830439, -161.475, 0.830439, 18.5245
6, 3300.00000, 243.686, -150.062, 0, 0, 0.98408, -161.539, 0.98408, 18.4612
7, 0.00000, 244.305, -149.879, 0, 0, 0.981507, -161.36, 0.981507, 18.6396
7, 300.00000, 244.921, -149.779, 0, 0, 1.02068, -161.258, 1.02068, 18.7417
7, 600.00000, 244.53, -149.941, 0, 0, 1.33958, -161.417, 1.33958, 18.5833
7, 900.00000, 245.653, -149.747, 0, 0, 1.25862, -161.226, 1.25862, 18.7743
7, 1200.00000, 244.009, -149.655, 0, 0, 1.02455, -161.133, 1.02455, 18.8666
7, 1500.00000, 246.432, -149.506, 0, 0, 1.01449, -160.985, 1.01449, 19.0152
7, 1800.00000, 247.45, -149.421, 0, 0, 0.779381, -160.9, 0.779381, 19.1001
7, 2100.00000, 247, -149.312, 0, 0, 0.722958, -160.79, 0.722958, 19.21
7, 2400.00000, 248.872, -149.194, 0, 0, 0.717532, -160.672, 0.717532, 19.3277
7, 2700.00000, 246.825, -149.56, 0, 0, 0.723469, -161.038, 0.723469, 18.9623
7, 3000.00000, 242.414, -150.289, 0, 0, 0.875547, -161.767, 0.875547, 18.2331
7, 3300.00000, 245.4, -149.845, 0, 0, 0.864899, -161.324, 0.864899, 18.6764
8, 0.00000, 245.954, -149.407, 0, 0, 0.862947, -160.886, 0.862947, 19.1138
8, 300.00000, 247.038, -149.165, 0, 0, 0.859163, -160.643, 0.859163, 19.3567
8, 600.00000, 246.205, -149.286, 0, 0, 1.11073, -160.765, 1.11073, 19.2355
8, 900.00000, 245.547, -149.54, 0, 0, 1.27994, -161.018, 1.27994, 18.9819
8, 1200.00000, 246.596, -149.866, 0, 0, 1.2745, -161.344, 1.2745, 18.6564
8, 1500.00000, 245.301, -149.692, 0, 0, 1.28122, -161.17, 1.28122, 18.8299
8, 1800.00000, 246.992, -149.505, 0, 0, 1.27246, -160.984, 1.27246, 19.0163
8, 2100.00000, 242.624, -149.787, 0, 0, 1.12713, -161.265, 1.12713, 18.7347
8, 2400.00000, 239.536, -149.999, 0, 0, 1.16722, -161.477, 1.16722, 18.523
8, 2700.00000, 243.679, -149.603, 0, 0, 1.33163, -161.081, 1.33163, 18.9189
8, 3000.00000, 246.485, -149.375, 0, 0, 1.31648, -160.853, 1.31648, 19.1469
8, 3300.00000, 247.879, -149.169, 0, 0, 0.642189, -160.648, 0.642189, 19.3524
9, 0.00000, 248.108, -149.096, 0, 0, 0.189187, -160.575, 0.189187, 19.4253
9, 300.00000, 248.389, -149.163, 0, 0, 0.423135, -160.641, 0.423135, 19.3587
9, 600.00000, 248.663, -149.346, 0, 0, 0.43416, -160.824, 0.43416, 19.1757
9, 900.00000, 248.663, -149.178, 0, 0, 0.352908, -160.657, 0.352908, 19.3434
9, 1200.00000, 247.712, -149.153, 0, 0, 5.00822, -160.631, 5.00822, 19.3688
9, 1500.00000, 248.977, -149.098, 0, 0, 0.352467, -160.577, 0.352467, 19.4234
9, 1800.00000, 247.19, -148.978, 0, 0, 0.404544, -160.457, 0.404544, 19.5431
9, 2100.00000, 248.006, -149.321, 0, 0, 0.600706, -160.799, 0.600706, 19.2013
9, 2400.00000, 248.464, -149.291, 0, 0, 0.435331, -160.769, 0.435331, 19.2309
9, 2700.00000, 248.308, -149.338, 0, 0, 0.435603, -160.816, 0.435603, 19.1836
9, 3000.00000, 248.258, -149.267, 0, 0, 0.526116, -160.746, 0.526116, 19.2544
9, 3300.00000, 249.703, -149.041, 0, 0, 0.882692, -160.52, 0.882692, 19.4803
10, 0.00000, 244.358, -149.488, 0, 0, 0.901981, -160.966, 0.901981, 19.0344
10, 300.00000, 247.615, -149.391, 0, 0, 0.642877, -160.87, 0.642877, 19.1305
10, 600.00000, 251.323, -149.017, 0, 0, 0.365428, -160.497, 0.365428, 19.5032
10, 900.00000, 250.121, -149.12, 0, 0, 0.187663, -160.598, 0.187663, 19.4017
10, 1200.00000, 247.59, -149.188, 0, 0, 0.189581, -160.667, 0.189581, 19.3333
10, 1500.00000, 245.607, -149.32, 0, 0, 0.191113, -160.798, 0.191113, 19.2019
10, 1800.00000, 252.804, -148.785, 0, 0, 0.185672, -160.263, 0.185672, 19.7371
10, 2100.00000, 251.096, -148.832, 0, 0, 0.186932, -160.31, 0.186932, 19.6901
10, 2400.00000, 247.021, -149.299, 0, 0, 0.190016, -160.776, 0.190016, 19.2237
10, 2700.00000, 251.877, -148.829, 0, 0, 0.186366, -160.309, 0.186366, 19.6908
10, 3000.00000, 251.302, -148.928, 0, 0, 0.186782, -160.406, 0.186782, 19.5937
10, 3300.00000, 250.04, -149.015, 0, 0, 0.367284, -160.493, 0.367284, 19.507
11, 0.00000, 252.063, -148.84, 0, 0, 0.631539, -160.319, 0.631539, 19.6805
11, 300.00000, 248.071, -149.239, 0, 0, 0.641673, -160.717, 0.641673, 19.2835
11, 600.00000, 241.748, -149.909, 0, 0, 0.658469, -161.388, 0.658469, 18.6125
11, 900.00000, 241.906, -150.06, 0, 0, 0.28684, -161.536, 0.28684, 18.4638
11, 1200.00000, 249.277, -149.266, 0, 0, 0.18831, -160.746, 0.18831, 19.2542
11, 1500.00000, 252.098, -148.996, 0, 0, 0.186199, -160.475, 0.186199, 19.5251
11, 1800.00000, 251.817, -148.861, 0, 0, 0.186399, -160.34, 0.186399, 19.6597
11, 2100.00000, 252.432, -148.83, 0, 0, 0.185948, -160.309, 0.185948, 19.6911
11, 2400.00000, 252.059, -148.853, 0, 0, 0.186238, -160.332, 0.186238, 19.6676
11, 2700.00000, 250.831, -148.936, 0, 0, 0.187131, -160.414, 0.187131, 19.5859
11, 3000.00000, 242.432, -149.744, 0, 0, 0.193616, -161.222, 0.193616, 18.7778
11, 3300.00000, 244.916, -149.532, 0, 0, 0.191654, -161.011, 0.191654, 18.9892
12, 0.00000, 246.487, -149.476, 0, 0, 0.190431, -160.955, 0.190431, 19.0454
12, 300.00000, 243.702, -149.733, 0, 0, 0.653188, -161.211, 0.653188, 18.7892
12, 600.00000, 247.565, -149.397, 0, 0, 0.643009, -160.876, 0.643009, 19.1241
12, 900.00000, 249.67, -149.195, 0, 0, 0.637588, -160.674, 0.637588, 19.3258
12, 1200.00000, 244.231, -149.676, 0, 0, 0.467937, -161.154, 0.467937, 18.8463
12, 1500.00000, 243.562, -149.685, 0, 0, 0.192727, -161.164, 0.192727, 18.8358
12, 1800.00000, 243.276, -149.873, 0, 0, 0.19295, -161.349, 0.19295, 18.6512
12, 2100.00000, 244.788, -149.734, 0, 0, 0.191753, -161.213, 0.191753, 18.7873
12, 2400.00000, 247.132, -149.564, 0, 0, 0.189936, -161.043, 0.189936, 18.9571
12, 2700.00000, 251.311, -148.975, 0, 0, 0.186784, -160.456, 0.186784, 19.5442
12, 3000.00000, 250.015, -149.057, 0, 0, 0.187742, -160.535, 0.187742, 19.4649
12, 3300.00000, 244.434, -149.811, 0, 0, 0.192029, -161.289, 0.192029, 18.7112
13, 0.00000, 243.191, -149.909, 0, 0, 0.193023, -161.387, 0.193023, 18.6131
13, 300.00000, 246.921, -149.429, 0, 0, 0.190099, -160.908, 0.190099, 19.0921
13, 600.00000, 252.501, -148.77, 0, 0, 0.185895, -160.248, 0.185895, 19.7516
13, 900.00000, 252.082, -148.875, 0, 0, 0.186204, -160.353, 0.186204, 19.6468
13, 1200.00000, 251.811, -148.884, 0, 0, 0.186406, -160.362, 0.186406, 19.6381
13, 1500.00000, 252.224, -148.894, 0, 0, 0.186101, -160.372, 0.186101, 19.6277
13, 1800.00000, 252.007, -148.899, 0, 0, 0.186268, -160.378, 0.186268, 19.6218
13, 2100.00000, 252.903, -148.617, 0, 0, 0.185603, -160.097, 0.185603, 19.9029
13, 2400.00000, 252.347, -148.762, 0, 0, 0.186006, -160.239, 0.186006, 19.7605
13, 2700.00000, 251.333, -148.843, 0, 0, 0.186757, -160.321, 0.186757, 19.679
13, 3000.00000, 248.798, -149.135, 0, 0, 0.188659, -160.613, 0.188659, 19.3873
13, 3300.00000, 251.26, -148.954, 0, 0, 0.186818, -160.433, 0.186818, 19.5667
14, 0.00000, 251.338, -148.936, 0, 0, 0.186752, -160.414, 0.186752, 19.5861
14, 300.00000, 250.257, -148.927, 0, 0, 0.725775, -160.406, 0.725775, 19.5942
14, 600.00000, 250.763, -148.872, 0, 0, 1.2696, -160.35, 1.2696, 19.6498
14, 900.00000, 246.134, -149.084, 0, 0, 5.77821, -160.562, 5.77821, 19.4379
14, 1200.00000, 243.906, -149.243, 0, 0, 1.10447, -160.721, 1.10447, 19.279
14, 1500.00000, 248.865, -149.069, 0, 0, 0.947196, -160.547, 0.947196, 19.4529
14, 1800.00000, 249.948, -149.068, 0, 0, 0.673617, -160.546, 0.673617, 19.454
14, 2100.00000, 249.458, -149.102, 0, 0, 0.674934, -160.581, 0.674934, 19.4193
14, 2400.00000, 251.122, -149.114, 0, 0, 0.868769, -160.592, 0.868769, 19.4079
14, 2700.00000, 248.173, -149.163, 0, 0, 1.18003, -160.642, 1.18003, 19.3584
14, 3000.00000, 247.824, -149.231, 0, 0, 1.18171, -160.709, 1.18171, 19.2907
14, 3300.00000, 247.912, -149.342, 0, 0, 0.189337, -160.82, 0.189337, 19.1797
15, 0.00000, 249.197, -149.194, 0, 0, 0.188361, -160.673, 0.188361, 19.327
15, 300.00000, 248.204, -149.065, 0, 0, 0.189112, -160.543, 0.189112, 19.4567
15, 600.00000, 242.345, -149.669, 0, 0, 0.471581, -161.147, 0.471581, 18.8527
15, 900.00000, 241.582, -149.837, 0, 0, 0.658935, -161.314, 0.658935, 18.6856
15, 1200.00000, 242.113, -149.821, 0, 0, 0.657471, -161.299, 0.657471, 18.7005
15, 1500.00000, 242.715, -149.777, 0, 0, 0.655829, -161.255, 0.655829, 18.7452
15, 1800.00000, 244.842, -149.437, 0, 0, 0.191711, -160.915, 0.191711, 19.0848
15, 2100.00000, 248.86, -149.054, 0, 0, 0.188621, -160.533, 0.188621, 19.467
15, 2400.00000, 247.15, -149.307, 0, 0, 0.189919, -160.785, 0.189919, 19.2148
15, 2700.00000, 245.493, -149.534, 0, 0, 0.191202, -161.012, 0.191202, 18.9881
15, 3000.00000, 244.2, -149.636, 0, 0, 0.192214, -161.114, 0.192214, 18.886
15, 3300.00000, 245.048, -149.605, 0, 0, 0.19155, -161.083, 0.19155, 18.917
16, 0.00000, 247.585, -149.276, 0, 0, 0.189588, -160.755, 0.189588, 19.2447
16, 300.00000, 247.49, -149.39, 0, 0, 0.18966, -160.869, 0.18966, 19.1314
16, 600.00000, 244.089, -149.648, 0, 0, 0.192301, -161.126, 0.192301, 18.8741
16, 900.00000, 243.213, -149.577, 0, 0, 0.193003, -161.057, 0.193003, 18.943
16, 1200.00000, 244.179, -149.556, 0, 0, 0.192219, -161.034, 0.192219, 18.9664
16, 1500.00000, 245.282, -149.439, 0, 0, 0.191367, -160.918, 0.191367, 19.0821
16, 1800.00000, 245.296, -149.431, 0, 0, 0.191355, -160.91, 0.191355, 19.0905
16, 2100.00000, 242.343, -149.838, 0, 0, 0.56422, -161.317, 0.56422, 18.6834
16, 2400.00000, 243.474, -149.568, 0, 0, 0.653801, -161.047, 0.653801, 18.953
16, 2700.00000, 239.848, -149.865, 0, 0, 0.663686, -161.343, 0.663686, 18.6569
16, 3000.00000, 240.401, -149.712, 0, 0, 0.568777, -161.189, 0.568777, 18.8107
16, 3300.00000, 243.03, -149.972, 0, 0, 0.19314, -161.45, 0.19314, 18.5499
17, 0.00000, 243.376, -150.095, 0, 0, 0.192863, -161.57, 0.192863, 18.4304
17, 300.00000, 243.11, -150.371, 0, 0, 0.193076, -161.849, 0.193076, 18.1506
17, 600.00000, 242.237, -150.215, 0, 0, 0.193772, -161.694, 0.193772, 18.3064
17, 900.00000, 241.014, -150.089, 0, 0, 0.194754, -161.57, 0.194754, 18.4302
17, 1200.00000, 239.872, -150.37, 0, 0, 0.195683, -161.848, 0.195683, 18.1518
17, 1500.00000, 239.471, -150.18, 0, 0, 0.19601, -161.659, 0.19601, 18.3414
17, 1800.00000, 239.785, -150.257, 0, 0, 0.382996, -161.735, 0.382996, 18.2654
17, 2100.00000, 238.5, -150.19, 0, 0, 0.6674, -161.67, 0.6674, 18.3299
17, 2400.00000, 239.935, -150.403, 0, 0, 0.663446, -161.881, 0.663446, 18.1191
17, 2700.00000, 239.799, -150.302, 0, 0, 0.66382, -161.78, 0.66382, 18.2198
17, 3000.00000, 240.653, -150.223, 0, 0, 0.288332, -161.702, 0.288332, 18.2982
17, 3300.00000, 238.153, -150.12, 0, 0, 0.197094, -161.598, 0.197094, 18.4017
18, 0.00000, 240.088, -149.964, 0, 0, 0.195508, -161.441, 0.195508, 18.5586
18, 300.00000, 238.666, -149.954, 0, 0, 0.196665, -161.434, 0.196665, 18.5656
18, 600.00000, 238.494, -149.791, 0, 0, 0.196811, -161.268, 0.196811, 18.7318
18, 900.00000, 239.621, -149.632, 0, 0, 0.195887, -161.11, 0.195887, 18.8896
18, 1200.00000, 238.595, -149.708, 0, 0, 0.196725, -161.188, 0.196725, 18.8117
18, 1500.00000, 237.217, -149.954, 0, 0, 0.197872, -161.432, 0.197872, 18.568
18, 1800.00000, 237.629, -149.888, 0, 0, 0.197534, -161.366, 0.197534, 18.6338
18, 2100.00000, 236.766, -150.135, 0, 0, 0.198249, -161.613, 0.198249, 18.387
18, 2400.00000, 239.266, -150.003, 0, 0, 0.383827, -161.481, 0.383827, 18.5191
18, 2700.00000, 239.667, -150.106, 0, 0, 0.664188, -161.584, 0.664188, 18.4157
18, 3000.00000, 239.193, -149.983, 0, 0, 0.665504, -161.461, 0.665504, 18.5386
18, 3300.00000, 239.745, -150.003, 0, 0, 0.663988, -161.481, 0.663988, 18.5189
19, 0.00000, 240.135, -150.093, 0, 0, 0.288953, -161.571, 0.288953, 18.4286
19, 300.00000, 240.606, -150.077, 0, 0, 1.21716, -161.556, 1.21716, 18.444
19, 600.00000, 240.243, -150.224, 0, 0, 0.852029, -161.701, 0.852029, 18.2987
19, 900.00000, 239.629, -150.438, 0, 0, 0.450526, -161.916, 0.450526, 18.0837
19, 1200.00000, 240.368, -150.439, 0, 0, 0.241979, -161.917, 0.241979, 18.0831
19, 1500.00000, 238.549, -150.147, 0, 0, 0.24382, -161.626, 0.24382, 18.3744
19, 1800.00000, 236.551, -150.212, 0, 0, 0.245879, -161.69, 0.245879, 18.3101
19, 2100.00000, 234.438, -149.91, 0, 0, 0.248094, -161.388, 0.248094, 18.6116
19, 2400.00000, 238.411, -149.98, 0, 0, 0.243963, -161.458, 0.243963, 18.5419
19, 2700.00000, 239.713, -149.995, 0, 0, 0.223908, -161.473, 0.223908, 18.527
19, 3000.00000, 239.247, -150.21, 0, 0, 0.196193, -161.688, 0.196193, 18.312
19, 3300.00000, 239.611, -150.323, 0, 0, 0.195896, -161.801, 0.195896, 18.1988
20, 0.00000, 239.168, -150.273, 0, 0, 0.657022, -161.752, 0.657022, 18.2478
20, 300.00000, 239.291, -150.166, 0, 0, 5.39451, -161.645, 5.39451, 18.3554
20, 600.00000, 239.609, -150.154, 0, 0, 0.715454, -161.633, 0.715454, 18.367
20, 900.00000, 239.77, -150.093, 0, 0, 0.714973, -161.572, 0.714973, 18.4279
20, 1200.00000, 238.884, -150.378, 0, 0, 0.660384, -161.857, 0.660384, 18.1433
20, 1500.00000, 238.772, -150.325, 0, 0, 0.764963, -161.805, 0.764963, 18.1955
20, 1800.00000, 238.911, -150.406, 0, 0, 0.764525, -161.884, 0.764525, 18.1159
20, 2100.00000, 238.878, -150.265, 0, 0, 0.347714, -161.743, 0.347714, 18.2568
20, 2400.00000, 238.554, -150.35, 0, 0, 0.243813, -161.827, 0.243813, 18.1729
20, 2700.00000, 238.189, -150.256, 0, 0, 0.346997, -161.735, 0.346997, 18.2646
20, 3000.00000, 238.799, -150.322, 0, 0, 0.875129, -161.8, 0.875129, 18.2001
20, 3300.00000, 238.896, -150.396, 0, 0, 1.99045, -161.874, 1.99045, 18.1257
21, 0.00000, 238.28, -150.479, 0, 0, 2.4152, -161.956, 2.4152, 18.0435
21, 300.00000, 236.438, -150.432, 0, 0, 2.6067, -161.91, 2.6067, 18.0896
21, 600.00000, 237.956, -150.664, 0, 0, 1.87825, -162.142, 1.87825, 17.8584
21, 900.00000, 237.355, -150.549, 0, 0, 1.7609, -162.027, 1.7609, 17.9727
