hour, t(sec), V1, VAngle1, V2, VAngle2, I1, IAngle1, I2, IAngle2
0, 300.00000, 239.769, -150.005, 0, 0, 1.08182, -161.483, 1.08182, 18.517
0, 600.00000, 239.517, -149.973, 0, 0, 6.4296, -161.452, 6.4296, 18.5483
0, 900.00000, 239.239, -149.974, 0, 0, 9.0388, -161.453, 9.0388, 18.5473
0, 1200.00000, 239.502, -149.984, 0, 0, 1.61475, -161.463, 1.61475, 18.5373
0, 1500.00000, 239.674, -149.996, 0, 0, 1.67149, -161.475, 1.67149, 18.5254
0, 1800.00000, 239.59, -150.002, 0, 0, 2.20188, -161.48, 2.20188, 18.5201
0, 2100.00000, 239.669, -149.995, 0, 0, 1.08994, -161.473, 1.08994, 18.5266
0, 2400.00000, 239.474, -149.987, 0, 0, 0.919528, -161.465, 0.919528, 18.5345
0, 2700.00000, 239.705, -150.018, 0, 0, 0.234131, -161.496, 0.234131, 18.5037
0, 3000.00000, 239.726, -149.995, 0, 0, 0.234111, -161.473, 0.234111, 18.5267
0, 3300.00000, 239.679, -149.999, 0, 0, 0.234157, -161.478, 0.234157, 18.5225
1, 0.00000, 239.629, -149.991, 0, 0, 0.234205, -161.47, 0.234205, 18.5304
1, 300.00000, 239.554, -149.999, 0, 0, 0.234278, -161.477, 0.234278, 18.5227
1, 600.00000, 239.631, -149.992, 0, 0, 0.234204, -161.47, 0.234204, 18.5296
1, 900.00000, 239.622, -149.995, 0, 0, 0.234212, -161.473, 0.234212, 18.5265
1, 1200.00000, 238.327, -149.982, 0, 0, 0.235485, -161.46, 0.235485, 18.5401
1, 1500.00000, 239.63, -149.998, 0, 0, 0.234216, -161.476, 0.234216, 18.524
1, 1800.00000, 239.589, -150.009, 0, 0, 0.234245, -161.487, 0.234245, 18.5131
1, 2100.00000, 239.577, -150.016, 0, 0, 0.234256, -161.495, 0.234256, 18.5053
1, 2400.00000, 239.46, -150.022, 0, 0, 0.23437, -161.501, 0.23437, 18.4992
1, 2700.00000, 239.344, -150.023, 0, 0, 1.09142, -161.501, 1.09142, 18.499
1, 3000.00000, 239.313, -150.018, 0, 0, 1.09156, -161.497, 1.09156, 18.5034
1, 3300.00000, 239.317, -150.022, 0, 0, 0.920137, -161.5, 0.920137, 18.4996
2, 0.00000, 239.539, -150.025, 0, 0, 0.234294, -161.504, 0.234294, 18.4962
2, 300.00000, 239.84, -150.016, 0, 0, 0.234001, -161.494, 0.234001, 18.5056
2, 600.00000, 239.795, -150.008, 0, 0, 0.234043, -161.486, 0.234043, 18.5136
2, 900.00000, 239.787, -150.012, 0, 0, 0.234051, -161.49, 0.234051, 18.51
2, 1200.00000, 239.777, -150.013, 0, 0, 0.234061, -161.491, 0.234061, 18.5091
2, 1500.00000, 239.763, -150.008, 0, 0, 0.234075, -161.486, 0.234075, 18.5136
2, 1800.00000, 239.827, -149.989, 0, 0, 0.234013, -161.467, 0.234013, 18.5326
2, 2100.00000, 239.835, -150.018, 0, 0, 0.234004, -161.497, 0.234004, 18.5035
2, 2400.00000, 239.834, -150.016, 0, 0, 0.234005, -161.494, 0.234005, 18.506
2, 2700.00000, 239.739, -150.012, 0, 0, 0.234097, -161.49, 0.234097, 18.5096
2, 3000.00000, 239.733, -150.022, 0, 0, 0.234104, -161.5, 0.234104, 18.5001
2, 3300.00000, 239.72, -150.032, 0, 0, 0.234117, -161.51, 0.234117, 18.4899
3, 0.00000, 239.711, -150.035, 0, 0, 0.234126, -161.513, 0.234126, 18.4865
3, 300.00000, 239.908, -150.033, 0, 0, 0.233934, -161.511, 0.233934, 18.4887
3, 600.00000, 239.938, -150.034, 0, 0, 0.233904, -161.512, 0.233904, 18.4881
3, 900.00000, 239.897, -150.019, 0, 0, 0.233943, -161.497, 0.233943, 18.5028
3, 1200.00000, 239.902, -150.004, 0, 0, 0.233939, -161.482, 0.233939, 18.5176
3, 1500.00000, 239.854, -150.006, 0, 0, 0.233986, -161.484, 0.233986, 18.5155
3, 1800.00000, 239.912, -150.015, 0, 0, 0.23393, -161.493, 0.23393, 18.5066
3, 2100.00000, 240.04, -150.017, 0, 0, 0.233805, -161.495, 0.233805, 18.5049
3, 2400.00000, 239.962, -150.019, 0, 0, 0.23388, -161.498, 0.23388, 18.5024
3, 2700.00000, 239.951, -150.018, 0, 0, 0.233891, -161.496, 0.233891, 18.5039
3, 3000.00000, 239.896, -150.01, 0, 0, 0.575929, -161.488, 0.575929, 18.5116
3, 3300.00000, 239.797, -150.004, 0, 0, 1.08936, -161.482, 1.08936, 18.5176
4, 0.00000, 239.833, -150.004, 0, 0, 1.08919, -161.483, 1.08919, 18.5173
4, 300.00000, 240.017, -150.019, 0, 0, 0.575642, -161.497, 0.575642, 18.5031
4, 600.00000, 240.017, -150.023, 0, 0, 0.233827, -161.501, 0.233827, 18.4988
4, 900.00000, 240.051, -150.023, 0, 0, 0.233794, -161.502, 0.233794, 18.4983
4, 1200.00000, 239.989, -150.026, 0, 0, 0.233854, -161.504, 0.233854, 18.4959
4, 1500.00000, 240.005, -150.01, 0, 0, 0.233839, -161.488, 0.233839, 18.5119
4, 1800.00000, 239.987, -150.007, 0, 0, 0.233856, -161.486, 0.233856, 18.5142
4, 2100.00000, 240.023, -150.011, 0, 0, 0.233822, -161.49, 0.233822, 18.5104
4, 2400.00000, 239.973, -150.004, 0, 0, 0.233869, -161.482, 0.233869, 18.5181
4, 2700.00000, 239.997, -150, 0, 0, 0.233846, -161.478, 0.233846, 18.5217
4, 3000.00000, 240.066, -149.999, 0, 0, 0.233779, -161.477, 0.233779, 18.5231
4, 3300.00000, 240.131, -149.989, 0, 0, 0.233716, -161.467, 0.233716, 18.5326
5, 0.00000, 240.06, -149.987, 0, 0, 0.233784, -161.466, 0.233784, 18.5344
5, 300.00000, 240.146, -149.988, 0, 0, 0.233701, -161.467, 0.233701, 18.5334
5, 600.00000, 240.142, -149.982, 0, 0, 0.233705, -161.46, 0.233705, 18.5399
5, 900.00000, 240.177, -149.979, 0, 0, 0.233671, -161.457, 0.233671, 18.5428
5, 1200.00000, 240.291, -149.973, 0, 0, 0.745695, -161.451, 0.745695, 18.5491
5, 1500.00000, 240.342, -149.963, 0, 0, 1.08688, -161.442, 1.08688, 18.5582
5, 1800.00000, 240.496, -149.955, 0, 0, 1.08619, -161.434, 1.08619, 18.5663
5, 2100.00000, 240.756, -149.927, 0, 0, 0.40349, -161.405, 0.40349, 18.5948
5, 2400.00000, 240.836, -149.926, 0, 0, 0.233032, -161.404, 0.233032, 18.596
5, 2700.00000, 240.713, -149.957, 0, 0, 0.233151, -161.436, 0.233151, 18.5644
5, 3000.00000, 240.907, -149.92, 0, 0, 0.232963, -161.399, 0.232963, 18.6013
5, 3300.00000, 240.967, -149.95, 0, 0, 0.232905, -161.428, 0.232905, 18.572
6, 0.00000, 241.193, -149.995, 0, 0, 0.232686, -161.472, 0.232686, 18.5277
6, 300.00000, 241.947, -149.941, 0, 0, 0.231955, -161.419, 0.231955, 18.5809
6, 600.00000, 242.111, -149.972, 0, 0, 0.231805, -161.45, 0.231805, 18.5503
6, 900.00000, 243.079, -149.851, 0, 0, 0.230882, -161.329, 0.230882, 18.6706
6, 1200.00000, 242.462, -149.832, 0, 0, 0.231477, -161.311, 0.231477, 18.6887
6, 1500.00000, 242.311, -149.795, 0, 0, 0.231615, -161.274, 0.231615, 18.7264
6, 1800.00000, 242.617, -149.733, 0, 0, 0.231318, -161.212, 0.231318, 18.788
6, 2100.00000, 242.234, -149.826, 0, 0, 1.07841, -161.304, 1.07841, 18.6961
6, 2400.00000, 242.588, -149.844, 0, 0, 1.0768, -161.322, 1.0768, 18.6783
6, 2700.00000, 243.347, -149.822, 0, 0, 0.904849, -161.3, 0.904849, 18.7001
6, 3000.00000, 243.173, -149.941, 0, 0, 0.230798, -161.418, 0.230798, 18.5823
6, 3300.00000, 242.584, -149.989, 0, 0, 0.231359, -161.467, 0.231359, 18.5334
7, 0.00000, 243.099, -149.879, 0, 0, 0.230857, -161.359, 0.230857, 18.6408
7, 300.00000, 243.471, -149.814, 0, 0, 1.04774, -161.294, 1.04774, 18.7064
7, 600.00000, 243.16, -149.907, 0, 0, 1.0995, -161.384, 1.0995, 18.616
7, 900.00000, 243.924, -149.811, 0, 0, 1.09603, -161.29, 1.09603, 18.7103
7, 1200.00000, 243.18, -149.734, 0, 0, 1.04902, -161.212, 1.04902, 18.7879
7, 1500.00000, 244.485, -149.641, 0, 0, 0.893179, -161.119, 0.893179, 18.8809
7, 1800.00000, 245.146, -149.579, 0, 0, 0.903254, -161.057, 0.903254, 18.9425
7, 2100.00000, 244.941, -149.53, 0, 0, 0.904005, -161.009, 0.904005, 18.9912
7, 2400.00000, 246.119, -149.435, 0, 0, 0.899689, -160.913, 0.899689, 19.087
7, 2700.00000, 244.683, -149.664, 0, 0, 1.57554, -161.142, 1.57554, 18.8583
7, 3000.00000, 241.462, -150.179, 0, 0, 4.24456, -161.657, 4.24456, 18.3428
7, 3300.00000, 243.006, -149.843, 0, 0, 11.7592, -161.321, 11.7592, 18.6786
8, 0.00000, 244.09, -149.617, 0, 0, 1.20815, -161.096, 1.20815, 18.9044
8, 300.00000, 244.742, -149.477, 0, 0, 1.20494, -160.956, 1.20494, 19.0442
8, 600.00000, 244.273, -149.538, 0, 0, 0.956605, -161.016, 0.956605, 18.984
8, 900.00000, 244.231, -149.675, 0, 0, 0.789649, -161.153, 0.789649, 18.8472
8, 1200.00000, 244.882, -149.875, 0, 0, 0.787553, -161.353, 0.787553, 18.6471
8, 1500.00000, 243.828, -149.759, 0, 0, 0.7784, -161.237, 0.7784, 18.7628
8, 1800.00000, 244.551, -149.623, 0, 0, 10.7628, -161.102, 10.7628, 18.8983
8, 2100.00000, 242.091, -149.819, 0, 0, 0.231824, -161.297, 0.231824, 18.7031
8, 2400.00000, 239.858, -149.974, 0, 0, 0.233982, -161.452, 0.233982, 18.5478
8, 2700.00000, 242.921, -149.707, 0, 0, 0.231032, -161.185, 0.231032, 18.8146
8, 3000.00000, 244.835, -149.559, 0, 0, 0.229227, -161.037, 0.229227, 18.9627
8, 3300.00000, 245.732, -149.435, 0, 0, 0.228391, -160.913, 0.228391, 19.0868
9, 0.00000, 246.067, -149.356, 0, 0, 0.228078, -160.835, 0.228078, 19.1652
9, 300.00000, 246.01, -149.429, 0, 0, 0.228131, -160.907, 0.228131, 19.0927
9, 600.00000, 246.196, -149.54, 0, 0, 0.561192, -161.018, 0.561192, 18.9821
9, 900.00000, 246.008, -149.439, 0, 0, 4.09644, -160.918, 4.09644, 19.0822
9, 1200.00000, 245.444, -149.418, 0, 0, 6.20862, -160.896, 6.20862, 19.1037
9, 1500.00000, 246.319, -149.403, 0, 0, 1.11604, -160.881, 1.11604, 19.1188
9, 1800.00000, 245.372, -149.323, 0, 0, 0.785976, -160.802, 0.785976, 19.1984
9, 2100.00000, 245.88, -149.514, 0, 0, 0.891424, -160.992, 0.891424, 19.008
9, 2400.00000, 246.236, -149.492, 0, 0, 1.31781, -160.97, 1.31781, 19.0298
9, 2700.00000, 246.271, -149.515, 0, 0, 1.31762, -160.993, 1.31762, 19.007
9, 3000.00000, 246.233, -149.479, 0, 0, 1.31782, -160.958, 1.31782, 19.0425
9, 3300.00000, 247.306, -149.326, 0, 0, 1.31211, -160.805, 1.31211, 19.195
10, 0.00000, 243.47, -149.631, 0, 0, 1.33276, -161.109, 1.33276, 18.8909
10, 300.00000, 245.621, -149.549, 0, 0, 0.228494, -161.028, 0.228494, 18.9722
10, 600.00000, 248.247, -149.3, 0, 0, 0.226082, -160.779, 0.226082, 19.2211
10, 900.00000, 247.31, -149.386, 0, 0, 0.22693, -160.864, 0.22693, 19.136
10, 1200.00000, 245.417, -149.457, 0, 0, 0.228681, -160.935, 0.228681, 19.0645
10, 1500.00000, 244.037, -149.569, 0, 0, 0.229975, -161.047, 0.229975, 18.953
10, 1800.00000, 249.007, -149.182, 0, 0, 0.225385, -160.661, 0.225385, 19.3393
10, 2100.00000, 247.842, -149.239, 0, 0, 0.557458, -160.718, 0.557458, 19.2823
10, 2400.00000, 244.972, -149.549, 0, 0, 1.06633, -161.027, 1.06633, 18.9726
10, 2700.00000, 248.323, -149.222, 0, 0, 1.05199, -160.702, 1.05199, 19.2982
10, 3000.00000, 248.009, -149.298, 0, 0, 0.557089, -160.776, 0.557089, 19.224
10, 3300.00000, 247.203, -149.346, 0, 0, 0.227028, -160.824, 0.227028, 19.1763
11, 0.00000, 248.628, -149.219, 0, 0, 0.225732, -160.697, 0.225732, 19.3025
11, 300.00000, 245.785, -149.49, 0, 0, 1.06862, -160.968, 1.06862, 19.0321
11, 600.00000, 240.826, -149.929, 0, 0, 10.8657, -161.408, 10.8657, 18.5923
11, 900.00000, 241.297, -150.014, 0, 0, 3.31375, -161.491, 3.31375, 18.5092
11, 1200.00000, 246.679, -149.47, 0, 0, 0.781842, -160.949, 0.781842, 19.051
11, 1500.00000, 248.559, -149.281, 0, 0, 0.775918, -160.76, 0.775918, 19.2396
11, 1800.00000, 248.173, -149.199, 0, 0, 5.31392, -160.677, 5.31392, 19.3226
11, 2100.00000, 248.803, -149.179, 0, 0, 0.775146, -160.658, 0.775146, 19.3425
11, 2400.00000, 248.074, -149.188, 0, 0, 10.0379, -160.667, 10.0379, 19.3327
11, 2700.00000, 247.124, -149.242, 0, 0, 12.3997, -160.72, 12.3997, 19.2797
11, 3000.00000, 241.132, -149.803, 0, 0, 12.7079, -161.281, 12.7079, 18.7192
11, 3300.00000, 242.927, -149.648, 0, 0, 12.0512, -161.127, 12.0512, 18.8733
12, 0.00000, 244.032, -149.611, 0, 0, 11.9966, -161.089, 11.9966, 18.9106
12, 300.00000, 242.149, -149.769, 0, 0, 12.0899, -161.247, 12.0899, 18.7531
12, 600.00000, 244.865, -149.531, 0, 0, 11.9559, -161.01, 11.9559, 18.9902
12, 900.00000, 246.291, -149.4, 0, 0, 13.2746, -160.878, 13.2746, 19.1217
12, 1200.00000, 242.358, -149.726, 0, 0, 16.0059, -161.204, 16.0059, 18.7962
12, 1500.00000, 241.569, -149.743, 0, 0, 23.4618, -161.222, 23.4618, 18.778
12, 1800.00000, 241.789, -149.852, 0, 0, 14.3483, -161.329, 14.3483, 18.671
12, 2100.00000, 242.87, -149.768, 0, 0, 13.4002, -161.247, 13.4002, 18.7534
12, 2400.00000, 245.019, -149.655, 0, 0, 3.06851, -161.133, 3.06851, 18.8667
12, 2700.00000, 248.061, -149.274, 0, 0, 0.715777, -160.753, 0.715777, 19.2465
12, 3000.00000, 247.17, -149.329, 0, 0, 0.718332, -160.807, 0.718332, 19.1927
12, 3300.00000, 243.066, -149.827, 0, 0, 0.230893, -161.305, 0.230893, 18.6954
13, 0.00000, 242.205, -149.896, 0, 0, 0.231724, -161.374, 0.231724, 18.6263
13, 300.00000, 244.886, -149.584, 0, 0, 0.22918, -161.062, 0.22918, 18.9375
13, 600.00000, 248.87, -149.147, 0, 0, 0.225509, -160.625, 0.225509, 19.3747
13, 900.00000, 248.535, -149.208, 0, 0, 0.225813, -160.686, 0.225813, 19.3139
13, 1200.00000, 248.28, -149.225, 0, 0, 0.226045, -160.703, 0.226045, 19.2971
13, 1500.00000, 248.513, -149.231, 0, 0, 0.886092, -160.709, 0.886092, 19.2909
13, 1800.00000, 248.36, -149.235, 0, 0, 1.05183, -160.713, 1.05183, 19.2866
13, 2100.00000, 249.078, -149.062, 0, 0, 1.04877, -160.541, 1.04877, 19.4588
13, 2400.00000, 248.74, -149.154, 0, 0, 0.225625, -160.632, 0.225625, 19.3681
13, 2700.00000, 248.058, -149.209, 0, 0, 0.226246, -160.687, 0.226246, 19.313
13, 3000.00000, 246.269, -149.419, 0, 0, 0.227889, -160.897, 0.227889, 19.1035
13, 3300.00000, 248.029, -149.29, 0, 0, 0.226277, -160.769, 0.226277, 19.2313
14, 0.00000, 248.058, -149.28, 0, 0, 0.226245, -160.759, 0.226245, 19.2413
14, 300.00000, 247.444, -149.274, 0, 0, 0.226807, -160.753, 0.226807, 19.2472
14, 600.00000, 247.696, -149.235, 0, 0, 0.226579, -160.713, 0.226579, 19.2867
14, 900.00000, 244.393, -149.386, 0, 0, 0.229637, -160.864, 0.229637, 19.1356
14, 1200.00000, 242.34, -149.492, 0, 0, 0.231585, -160.971, 0.231585, 19.0294
14, 1500.00000, 246.482, -149.34, 0, 0, 0.2277, -160.819, 0.2277, 19.1814
14, 1800.00000, 247.107, -149.337, 0, 0, 0.22712, -160.815, 0.22712, 19.1849
14, 2100.00000, 246.654, -149.38, 0, 0, 0.227535, -160.858, 0.227535, 19.142
14, 2400.00000, 247.894, -149.361, 0, 0, 0.226399, -160.839, 0.226399, 19.1611
14, 2700.00000, 245.88, -149.433, 0, 0, 0.228249, -160.911, 0.228249, 19.0891
14, 3000.00000, 245.704, -149.448, 0, 0, 0.228415, -160.926, 0.228415, 19.0739
14, 3300.00000, 245.626, -149.508, 0, 0, 0.228488, -160.987, 0.228488, 19.0133
15, 0.00000, 246.539, -149.407, 0, 0, 0.227642, -160.885, 0.227642, 19.1146
15, 300.00000, 245.82, -149.344, 0, 0, 0.562048, -160.823, 0.562048, 19.1771
15, 600.00000, 241.659, -149.786, 0, 0, 1.08096, -161.265, 1.08096, 18.7355
15, 900.00000, 241.138, -149.892, 0, 0, 1.08331, -161.37, 1.08331, 18.63
15, 1200.00000, 241.505, -149.889, 0, 0, 0.572089, -161.367, 0.572089, 18.6326
15, 1500.00000, 241.937, -149.854, 0, 0, 0.231967, -161.332, 0.231967, 18.6678
15, 1800.00000, 243.381, -149.624, 0, 0, 0.230595, -161.103, 0.230595, 18.8973
15, 2100.00000, 246.318, -149.352, 0, 0, 0.22785, -160.83, 0.22785, 19.1695
15, 2400.00000, 245.089, -149.521, 0, 0, 0.228987, -160.999, 0.228987, 19.0006
15, 2700.00000, 243.943, -149.681, 0, 0, 0.230063, -161.16, 0.230063, 18.8404
15, 3000.00000, 243.076, -149.749, 0, 0, 0.230884, -161.227, 0.230884, 18.7726
15, 3300.00000, 243.638, -149.741, 0, 0, 0.230352, -161.219, 0.230352, 18.7806
16, 0.00000, 245.467, -149.514, 0, 0, 0.228637, -160.992, 0.228637, 19.0076
16, 300.00000, 245.348, -149.55, 0, 0, 0.228747, -161.028, 0.228747, 18.9719
16, 600.00000, 242.951, -149.736, 0, 0, 0.231003, -161.214, 0.231003, 18.7857
16, 900.00000, 242.529, -149.682, 0, 0, 0.231411, -161.162, 0.231411, 18.8383
16, 1200.00000, 243.157, -149.648, 0, 0, 0.230797, -161.126, 0.230797, 18.874
16, 1500.00000, 243.848, -149.581, 0, 0, 1.56923, -161.059, 1.56923, 18.9406
16, 1800.00000, 243.847, -149.567, 0, 0, 1.56923, -161.045, 1.56923, 18.9546
16, 2100.00000, 241.712, -149.87, 0, 0, 1.41339, -161.349, 1.41339, 18.6513
16, 2400.00000, 242.58, -149.686, 0, 0, 0.731928, -161.165, 0.731928, 18.8353
16, 2700.00000, 240.099, -149.908, 0, 0, 0.73949, -161.387, 0.73949, 18.6132
16, 3000.00000, 240.508, -149.788, 0, 0, 1.11499, -161.266, 1.11499, 18.734
16, 3300.00000, 242.22, -149.912, 0, 0, 1.01359, -161.39, 1.01359, 18.6096
17, 0.00000, 242.459, -149.994, 0, 0, 0.732286, -161.47, 0.732286, 18.5297
17, 300.00000, 242.207, -150.168, 0, 0, 0.331982, -161.646, 0.331982, 18.3536
17, 600.00000, 241.631, -150.077, 0, 0, 0.232265, -161.556, 0.232265, 18.4441
17, 900.00000, 240.491, -150.024, 0, 0, 0.233363, -161.504, 0.233363, 18.496
17, 1200.00000, 239.543, -150.193, 0, 0, 0.23429, -161.671, 0.23429, 18.3292
17, 1500.00000, 239.196, -150.047, 0, 0, 5.36151, -161.526, 5.36151, 18.4743
17, 1800.00000, 238.957, -150.112, 0, 0, 13.8919, -161.59, 13.8919, 18.4098
17, 2100.00000, 238.02, -150.066, 0, 0, 17.3694, -161.545, 17.3694, 18.4545
17, 2400.00000, 238.832, -150.215, 0, 0, 19.175, -161.693, 19.175, 18.3071
17, 2700.00000, 238.749, -150.152, 0, 0, 21.5101, -161.63, 21.5101, 18.3697
17, 3000.00000, 239.621, -150.087, 0, 0, 19.0415, -161.565, 19.0415, 18.4352
17, 3300.00000, 238.656, -150.044, 0, 0, 12.2771, -161.523, 12.2771, 18.4773
18, 0.00000, 239.657, -149.972, 0, 0, 12.4031, -161.45, 12.4031, 18.5503
18, 300.00000, 238.734, -149.991, 0, 0, 14.9602, -161.47, 14.9602, 18.5296
18, 600.00000, 238.785, -149.887, 0, 0, 12.3114, -161.365, 12.3114, 18.635
18, 900.00000, 239.52, -149.787, 0, 0, 12.6793, -161.265, 12.6793, 18.7351
18, 1200.00000, 238.64, -149.823, 0, 0, 12.8274, -161.302, 12.8274, 18.6975
18, 1500.00000, 237.301, -149.966, 0, 0, 17.6449, -161.445, 17.6449, 18.5553
18, 1800.00000, 237.891, -149.92, 0, 0, 12.9792, -161.398, 12.9792, 18.6025
18, 2100.00000, 236.559, -150.074, 0, 0, 23.8081, -161.552, 23.8081, 18.4481
18, 2400.00000, 238.976, -149.992, 0, 0, 11.1061, -161.47, 11.1061, 18.5298
18, 2700.00000, 239.776, -150.057, 0, 0, 1.34054, -161.535, 1.34054, 18.4649
18, 3000.00000, 239.077, -149.982, 0, 0, 9.16791, -161.46, 9.16791, 18.5399
18, 3300.00000, 239.519, -149.98, 0, 0, 7.29027, -161.458, 7.29027, 18.5421
19, 0.00000, 239.955, -150.049, 0, 0, 2.19429, -161.527, 2.19429, 18.473
19, 300.00000, 240.27, -150.048, 0, 0, 1.84996, -161.526, 1.84996, 18.4736
19, 600.00000, 240.026, -150.142, 0, 0, 1.30853, -161.619, 1.30853, 18.3809
19, 900.00000, 239.592, -150.252, 0, 0, 1.32027, -161.731, 1.32027, 18.2695
19, 1200.00000, 240.208, -150.254, 0, 0, 1.34664, -161.732, 1.34664, 18.2679
19, 1500.00000, 239.167, -150.095, 0, 0, 1.29275, -161.574, 1.29275, 18.4264
19, 1800.00000, 237.858, -150.131, 0, 0, 1.29986, -161.609, 1.29986, 18.3907
19, 2100.00000, 235.579, -149.943, 0, 0, 14.338, -161.422, 14.338, 18.5785
19, 2400.00000, 238.756, -149.982, 0, 0, 6.87751, -161.461, 6.87751, 18.5394
19, 2700.00000, 239.817, -150.002, 0, 0, 1.78197, -161.48, 1.78197, 18.5197
19, 3000.00000, 239.583, -150.136, 0, 0, 1.81437, -161.614, 1.81437, 18.386
19, 3300.00000, 239.785, -150.199, 0, 0, 1.81285, -161.677, 1.81285, 18.3225
20, 0.00000, 239.526, -150.17, 0, 0, 1.98603, -161.649, 1.98603, 18.3508
20, 300.00000, 239.661, -150.08, 0, 0, 2.68242, -161.559, 2.68242, 18.4413
20, 600.00000, 239.739, -150.077, 0, 0, 2.98795, -161.556, 2.98795, 18.444
20, 900.00000, 239.789, -150.059, 0, 0, 2.56178, -161.538, 2.56178, 18.4624
20, 1200.00000, 239.186, -150.225, 0, 0, 1.75766, -161.703, 1.75766, 18.2968
20, 1500.00000, 239.144, -150.197, 0, 0, 1.87573, -161.676, 1.87573, 18.324
20, 1800.00000, 239.16, -150.242, 0, 0, 2.13758, -161.721, 2.13758, 18.2792
20, 2100.00000, 238.891, -150.165, 0, 0, 7.24521, -161.643, 7.24521, 18.3568
20, 2400.00000, 238.578, -150.213, 0, 0, 9.81058, -161.691, 9.81058, 18.3093
20, 2700.00000, 238.109, -150.17, 0, 0, 14.7974, -161.649, 14.7974, 18.3514
20, 3000.00000, 239.239, -150.246, 0, 0, 2.13688, -161.724, 2.13688, 18.2762
20, 3300.00000, 239.341, -150.304, 0, 0, 2.66889, -161.783, 2.66889, 18.2173
21, 0.00000, 238.575, -150.315, 0, 0, 8.72333, -161.793, 8.72333, 18.2075
21, 300.00000, 237.234, -150.289, 0, 0, 12.0865, -161.767, 12.0865, 18.2329
21, 600.00000, 238.453, -150.4, 0, 0, 4.5275, -161.878, 4.5275, 18.1224
21, 900.00000, 238.135, -150.299, 0, 0, 4.58494, -161.778, 4.58494, 18.2221
21, 1200.00000, 237.276, -150.39, 0, 0, 15.0716, -161.868, 15.0716, 18.1315
21, 1500.00000, 238.081, -150.336, 0, 0, 10.0514, -161.815, 10.0514, 18.1854
