hour, t(sec), V1, VAngle1, V2, VAngle2, I1, IAngle1, I2, IAngle2
0, 300.00000, 239.697, -150.004, 0, 0, 0.20434, -161.482, 0.20434, 18.5175
0, 600.00000, 239.658, -149.956, 0, 0, 0.204373, -161.434, 0.204373, 18.5656
0, 900.00000, 239.42, -149.959, 0, 0, 0.204575, -161.437, 0.204575, 18.5629
0, 1200.00000, 239.455, -149.969, 0, 0, 0.204546, -161.448, 0.204546, 18.5525
0, 1500.00000, 239.54, -149.986, 0, 0, 0.204474, -161.465, 0.204474, 18.5353
0, 1800.00000, 239.467, -149.997, 0, 0, 0.204535, -161.476, 0.204535, 18.5242
0, 2100.00000, 239.494, -149.977, 0, 0, 0.204513, -161.456, 0.204513, 18.5441
0, 2400.00000, 239.347, -149.958, 0, 0, 0.204638, -161.436, 0.204638, 18.5639
0, 2700.00000, 239.386, -150.013, 0, 0, 0.204605, -161.491, 0.204605, 18.5087
0, 3000.00000, 239.461, -149.962, 0, 0, 0.204542, -161.441, 0.204542, 18.5593
0, 3300.00000, 239.403, -149.979, 0, 0, 0.20459, -161.457, 0.20459, 18.5425
1, 0.00000, 239.333, -149.978, 0, 0, 0.20465, -161.456, 0.20465, 18.5441
1, 300.00000, 239.218, -149.995, 0, 0, 0.204748, -161.473, 0.204748, 18.5269
1, 600.00000, 239.378, -149.989, 0, 0, 0.204613, -161.467, 0.204613, 18.533
1, 900.00000, 239.387, -149.998, 0, 0, 0.204604, -161.476, 0.204604, 18.5238
1, 1200.00000, 236.546, -149.959, 0, 0, 0.20706, -161.438, 0.20706, 18.5623
1, 1500.00000, 239.417, -149.992, 0, 0, 0.204594, -161.47, 0.204594, 18.5302
1, 1800.00000, 239.358, -150.008, 0, 0, 0.204628, -161.486, 0.204628, 18.5141
1, 2100.00000, 239.261, -150.016, 0, 0, 0.204712, -161.494, 0.204712, 18.5058
1, 2400.00000, 239.129, -150.025, 0, 0, 0.204824, -161.504, 0.204824, 18.4964
1, 2700.00000, 239.003, -150.023, 0, 0, 0.204932, -161.502, 0.204932, 18.4983
1, 3000.00000, 238.895, -150.013, 0, 0, 0.205025, -161.491, 0.205025, 18.5086
1, 3300.00000, 238.909, -150.024, 0, 0, 0.205013, -161.503, 0.205013, 18.4975
2, 0.00000, 239.183, -150.034, 0, 0, 0.204781, -161.512, 0.204781, 18.4879
2, 300.00000, 239.771, -150.023, 0, 0, 0.204279, -161.502, 0.204279, 18.4985
2, 600.00000, 239.727, -150.016, 0, 0, 0.204314, -161.494, 0.204314, 18.5056
2, 900.00000, 239.694, -150.022, 0, 0, 0.204342, -161.5, 0.204342, 18.4995
2, 1200.00000, 239.698, -150.027, 0, 0, 0.204338, -161.506, 0.204338, 18.4942
2, 1500.00000, 239.669, -150.025, 0, 0, 0.204363, -161.503, 0.204363, 18.497
2, 1800.00000, 239.732, -149.992, 0, 0, 0.204311, -161.471, 0.204311, 18.5292
2, 2100.00000, 239.751, -150.032, 0, 0, 0.204293, -161.51, 0.204293, 18.4899
2, 2400.00000, 239.734, -150.024, 0, 0, 0.204308, -161.502, 0.204308, 18.4977
2, 2700.00000, 239.588, -150.015, 0, 0, 0.204432, -161.493, 0.204432, 18.5067
2, 3000.00000, 239.611, -150.031, 0, 0, 0.204413, -161.51, 0.204413, 18.4905
2, 3300.00000, 239.606, -150.048, 0, 0, 0.204417, -161.526, 0.204417, 18.4742
3, 0.00000, 239.551, -150.049, 0, 0, 0.204464, -161.527, 0.204464, 18.4729
3, 300.00000, 239.731, -150.046, 0, 0, 0.204311, -161.524, 0.204311, 18.4762
3, 600.00000, 239.783, -150.048, 0, 0, 0.204267, -161.527, 0.204267, 18.4734
3, 900.00000, 239.73, -150.028, 0, 0, 0.204311, -161.506, 0.204311, 18.4936
3, 1200.00000, 239.776, -150.005, 0, 0, 0.204272, -161.483, 0.204272, 18.5168
3, 1500.00000, 239.699, -150.008, 0, 0, 0.204337, -161.486, 0.204337, 18.514
3, 1800.00000, 239.799, -150.026, 0, 0, 0.204253, -161.504, 0.204253, 18.4959
3, 2100.00000, 240.004, -150.03, 0, 0, 0.204079, -161.508, 0.204079, 18.4921
3, 2400.00000, 239.84, -150.03, 0, 0, 0.204217, -161.509, 0.204217, 18.4912
3, 2700.00000, 239.817, -150.03, 0, 0, 0.204237, -161.508, 0.204237, 18.492
3, 3000.00000, 239.738, -150.015, 0, 0, 0.204304, -161.493, 0.204304, 18.5068
3, 3300.00000, 239.59, -150.004, 0, 0, 0.20443, -161.483, 0.20443, 18.5172
4, 0.00000, 239.706, -150.007, 0, 0, 0.204332, -161.486, 0.204332, 18.5145
4, 300.00000, 239.991, -150.034, 0, 0, 0.20409, -161.512, 0.20409, 18.4878
4, 600.00000, 239.959, -150.04, 0, 0, 0.204116, -161.518, 0.204116, 18.4818
4, 900.00000, 240.016, -150.039, 0, 0, 0.204068, -161.517, 0.204068, 18.4826
4, 1200.00000, 239.862, -150.04, 0, 0, 0.204198, -161.518, 0.204198, 18.4816
4, 1500.00000, 239.879, -150.012, 0, 0, 0.204184, -161.49, 0.204184, 18.51
4, 1800.00000, 239.89, -150.006, 0, 0, 0.204175, -161.484, 0.204175, 18.5157
4, 2100.00000, 239.953, -150.018, 0, 0, 0.204122, -161.496, 0.204122, 18.5037
4, 2400.00000, 239.889, -150.008, 0, 0, 0.204176, -161.486, 0.204176, 18.5138
4, 2700.00000, 239.883, -150.005, 0, 0, 0.493439, -161.484, 0.493439, 18.5165
4, 3000.00000, 239.959, -150.009, 0, 0, 1.13965, -161.487, 1.13965, 18.5128
4, 3300.00000, 240.033, -149.987, 0, 0, 1.1393, -161.466, 1.1393, 18.5343
5, 0.00000, 239.895, -149.982, 0, 0, 1.16973, -161.461, 1.16973, 18.5394
5, 300.00000, 240.092, -149.986, 0, 0, 0.204004, -161.464, 0.204004, 18.5358
5, 600.00000, 240.085, -149.971, 0, 0, 0.204009, -161.449, 0.204009, 18.5509
5, 900.00000, 240.153, -149.964, 0, 0, 0.203951, -161.442, 0.203951, 18.5579
5, 1200.00000, 240.393, -149.953, 0, 0, 0.203748, -161.432, 0.203748, 18.5684
5, 1500.00000, 240.474, -149.943, 0, 0, 0.203679, -161.421, 0.203679, 18.5789
5, 1800.00000, 240.686, -149.928, 0, 0, 0.2035, -161.406, 0.2035, 18.5939
5, 2100.00000, 240.973, -149.882, 0, 0, 0.203257, -161.36, 0.203257, 18.6399
5, 2400.00000, 241.099, -149.879, 0, 0, 0.203151, -161.358, 0.203151, 18.6424
5, 2700.00000, 240.966, -149.926, 0, 0, 0.203264, -161.404, 0.203264, 18.5962
5, 3000.00000, 241.343, -149.857, 0, 0, 0.202945, -161.336, 0.202945, 18.6641
5, 3300.00000, 241.399, -149.937, 0, 0, 0.202899, -161.415, 0.202899, 18.5848
6, 0.00000, 241.783, -150.035, 0, 0, 0.202576, -161.512, 0.202576, 18.488
6, 300.00000, 242.916, -149.964, 0, 0, 0.201623, -161.443, 0.201623, 18.5573
6, 600.00000, 243.157, -150.033, 0, 0, 0.201432, -161.51, 0.201432, 18.4897
6, 900.00000, 244.52, -149.837, 0, 0, 0.200309, -161.315, 0.200309, 18.6847
6, 1200.00000, 243.533, -149.768, 0, 0, 0.201132, -161.247, 0.201132, 18.7526
6, 1500.00000, 243.247, -149.686, 0, 0, 0.201361, -161.165, 0.201361, 18.835
6, 1800.00000, 243.733, -149.589, 0, 0, 0.200951, -161.068, 0.200951, 18.9324
6, 2100.00000, 243.266, -149.721, 0, 0, 0.201346, -161.199, 0.201346, 18.8013
6, 2400.00000, 243.906, -149.801, 0, 0, 0.200807, -161.278, 0.200807, 18.7224
6, 2700.00000, 245.048, -149.802, 0, 0, 0.19986, -161.279, 0.19986, 18.7206
6, 3000.00000, 244.732, -150.012, 0, 0, 0.200145, -161.487, 0.200145, 18.5129
6, 3300.00000, 243.852, -150.071, 0, 0, 0.200867, -161.548, 0.200867, 18.4517
7, 0.00000, 244.497, -149.889, 0, 0, 0.20032, -161.37, 0.20032, 18.6296
7, 300.00000, 245.145, -149.781, 0, 0, 0.199788, -161.261, 0.199788, 18.739
7, 600.00000, 244.744, -149.94, 0, 0, 0.200135, -161.415, 0.200135, 18.5848
7, 900.00000, 245.909, -149.733, 0, 0, 0.199178, -161.212, 0.199178, 18.7884
7, 1200.00000, 244.044, -149.639, 0, 0, 0.200699, -161.118, 0.200699, 18.8825
7, 1500.00000, 246.691, -149.49, 0, 0, 0.198549, -160.968, 0.198549, 19.0316
7, 1800.00000, 247.755, -149.397, 0, 0, 0.197694, -160.876, 0.197694, 19.1245
7, 2100.00000, 247.272, -149.289, 0, 0, 0.858344, -160.767, 0.858344, 19.2327
7, 2400.00000, 249.201, -149.168, 0, 0, 0.851714, -160.647, 0.851714, 19.3534
7, 2700.00000, 247.065, -149.544, 0, 0, 0.859058, -161.022, 0.859058, 18.978
7, 3000.00000, 242.501, -150.286, 0, 0, 0.875235, -161.764, 0.875235, 18.2357
7, 3300.00000, 245.683, -149.834, 0, 0, 0.199362, -161.313, 0.199362, 18.6874
8, 0.00000, 246.194, -149.382, 0, 0, 0.198947, -160.861, 0.198947, 19.1392
8, 300.00000, 247.323, -149.138, 0, 0, 0.19804, -160.616, 0.19804, 19.3836
8, 600.00000, 246.475, -149.261, 0, 0, 0.198719, -160.739, 0.198719, 19.2611
8, 900.00000, 245.676, -149.524, 0, 0, 0.199366, -161.002, 0.199366, 18.9982
8, 1200.00000, 246.788, -149.856, 0, 0, 0.198469, -161.333, 0.198469, 18.6665
8, 1500.00000, 245.561, -149.693, 0, 0, 0.199459, -161.172, 0.199459, 18.8283
8, 1800.00000, 247.344, -149.505, 0, 0, 0.198023, -160.983, 0.198023, 19.0165
8, 2100.00000, 242.673, -149.789, 0, 0, 0.201833, -161.267, 0.201833, 18.7332
8, 2400.00000, 239.466, -150.006, 0, 0, 0.204537, -161.484, 0.204537, 18.516
8, 2700.00000, 243.794, -149.586, 0, 0, 0.200906, -161.065, 0.200906, 18.9351
8, 3000.00000, 246.725, -149.35, 0, 0, 0.19852, -160.828, 0.19852, 19.1716
8, 3300.00000, 248.198, -149.143, 0, 0, 0.197343, -160.622, 0.197343, 19.3784
9, 0.00000, 248.407, -149.068, 0, 0, 0.197175, -160.546, 0.197175, 19.4538
9, 300.00000, 248.745, -149.139, 0, 0, 0.196907, -160.618, 0.196907, 19.3824
9, 600.00000, 249.028, -149.328, 0, 0, 0.196683, -160.806, 0.196683, 19.1938
9, 900.00000, 249.059, -149.15, 0, 0, 0.196659, -160.629, 0.196659, 19.3712
9, 1200.00000, 248.174, -149.132, 0, 0, 0.197358, -160.61, 0.197358, 19.3899
9, 1500.00000, 249.391, -149.076, 0, 0, 0.1964, -160.554, 0.1964, 19.4456
9, 1800.00000, 247.502, -148.956, 0, 0, 0.197894, -160.434, 0.197894, 19.5656
9, 2100.00000, 248.319, -149.308, 0, 0, 0.197244, -160.785, 0.197244, 19.2147
9, 2400.00000, 248.749, -149.275, 0, 0, 0.196905, -160.754, 0.196905, 19.2462
9, 2700.00000, 248.5, -149.314, 0, 0, 0.197101, -160.792, 0.197101, 19.2076
9, 3000.00000, 248.426, -149.243, 0, 0, 0.19716, -160.722, 0.19716, 19.2781
9, 3300.00000, 249.946, -149.011, 0, 0, 0.195963, -160.49, 0.195963, 19.5099
10, 0.00000, 244.409, -149.478, 0, 0, 0.200398, -160.956, 0.200398, 19.0442
10, 300.00000, 247.873, -149.383, 0, 0, 0.197603, -160.861, 0.197603, 19.139
10, 600.00000, 251.716, -148.999, 0, 0, 0.194591, -160.478, 0.194591, 19.5219
10, 900.00000, 250.476, -149.101, 0, 0, 0.195544, -160.579, 0.195544, 19.421
10, 1200.00000, 247.86, -149.165, 0, 0, 0.197608, -160.643, 0.197608, 19.357
10, 1500.00000, 245.781, -149.296, 0, 0, 0.199281, -160.774, 0.199281, 19.2259
10, 1800.00000, 253.348, -148.741, 0, 0, 0.193328, -160.219, 0.193328, 19.7805
10, 2100.00000, 251.549, -148.781, 0, 0, 0.194707, -160.259, 0.194707, 19.7408
10, 2400.00000, 247.304, -149.266, 0, 0, 0.198051, -160.744, 0.198051, 19.2561
10, 2700.00000, 252.398, -148.782, 0, 0, 0.194068, -160.262, 0.194068, 19.7377
10, 3000.00000, 251.784, -148.885, 0, 0, 0.19453, -160.363, 0.19453, 19.6375
10, 3300.00000, 250.488, -148.977, 0, 0, 0.195534, -160.455, 0.195534, 19.5452
11, 0.00000, 252.604, -148.798, 0, 0, 0.193904, -160.277, 0.193904, 19.7225
11, 300.00000, 248.443, -149.213, 0, 0, 0.197142, -160.69, 0.197142, 19.3098
11, 600.00000, 241.884, -149.911, 0, 0, 0.202492, -161.389, 0.202492, 18.6107
11, 900.00000, 242.02, -150.077, 0, 0, 0.20238, -161.553, 0.20238, 18.4474
11, 1200.00000, 249.673, -149.262, 0, 0, 0.196186, -160.742, 0.196186, 19.258
11, 1500.00000, 252.584, -148.98, 0, 0, 0.193921, -160.46, 0.193921, 19.5402
11, 1800.00000, 252.289, -148.836, 0, 0, 0.194139, -160.315, 0.194139, 19.6848
11, 2100.00000, 252.927, -148.804, 0, 0, 0.193654, -160.282, 0.193654, 19.7176
11, 2400.00000, 252.566, -148.827, 0, 0, 0.193946, -160.307, 0.193946, 19.6934
11, 2700.00000, 251.282, -148.912, 0, 0, 0.194916, -160.39, 0.194916, 19.6099
11, 3000.00000, 242.538, -149.745, 0, 0, 0.201946, -161.223, 0.201946, 18.7771
11, 3300.00000, 245.143, -149.528, 0, 0, 0.199801, -161.006, 0.199801, 18.9938
12, 0.00000, 246.79, -149.466, 0, 0, 0.198467, -160.944, 0.198467, 19.0558
12, 300.00000, 243.891, -149.733, 0, 0, 0.200825, -161.212, 0.200825, 18.7884
12, 600.00000, 247.923, -149.389, 0, 0, 0.197564, -160.867, 0.197564, 19.1325
12, 900.00000, 250.116, -149.177, 0, 0, 0.195831, -160.656, 0.195831, 19.344
12, 1200.00000, 244.45, -149.675, 0, 0, 0.200365, -161.153, 0.200365, 18.8469
12, 1500.00000, 243.79, -149.682, 0, 0, 0.200919, -161.162, 0.200919, 18.8382
12, 1800.00000, 243.482, -149.888, 0, 0, 0.20117, -161.363, 0.20117, 18.6366
12, 2100.00000, 245.044, -149.743, 0, 0, 0.199881, -161.221, 0.199881, 18.779
12, 2400.00000, 247.457, -149.565, 0, 0, 0.197934, -161.044, 0.197934, 18.956
12, 2700.00000, 251.807, -148.948, 0, 0, 0.194521, -160.429, 0.194521, 19.5714
12, 3000.00000, 250.459, -149.033, 0, 0, 0.195557, -160.511, 0.195557, 19.4887
12, 3300.00000, 244.635, -149.808, 0, 0, 0.200214, -161.286, 0.200214, 18.7143
13, 0.00000, 243.336, -149.909, 0, 0, 0.201296, -161.387, 0.201296, 18.613
13, 300.00000, 247.227, -149.415, 0, 0, 0.198119, -160.894, 0.198119, 19.1062
13, 600.00000, 253.035, -148.733, 0, 0, 0.193567, -160.212, 0.193567, 19.7885
13, 900.00000, 252.596, -148.834, 0, 0, 0.193904, -160.312, 0.193904, 19.688
13, 1200.00000, 252.324, -148.839, 0, 0, 0.194115, -160.318, 0.194115, 19.6823
13, 1500.00000, 252.753, -148.85, 0, 0, 0.193786, -160.328, 0.193786, 19.6717
13, 1800.00000, 252.524, -148.856, 0, 0, 0.193968, -160.335, 0.193968, 19.6653
13, 2100.00000, 253.454, -148.568, 0, 0, 0.193252, -160.048, 0.193252, 19.9522
13, 2400.00000, 252.865, -148.719, 0, 0, 0.193696, -160.197, 0.193696, 19.8031
13, 2700.00000, 251.802, -148.807, 0, 0, 0.194513, -160.285, 0.194513, 19.7153
13, 3000.00000, 249.157, -149.108, 0, 0, 0.196578, -160.586, 0.196578, 19.4143
13, 3300.00000, 251.729, -148.92, 0, 0, 0.194577, -160.399, 0.194577, 19.6007
14, 0.00000, 251.821, -148.901, 0, 0, 0.194498, -160.379, 0.194498, 19.6209
14, 300.00000, 250.716, -148.892, 0, 0, 0.195357, -160.371, 0.195357, 19.6291
14, 600.00000, 251.24, -148.834, 0, 0, 0.194953, -160.313, 0.194953, 19.6874
14, 900.00000, 246.579, -149.056, 0, 0, 0.198632, -160.534, 0.198632, 19.4659
14, 1200.00000, 244.202, -149.217, 0, 0, 0.200569, -160.696, 0.200569, 19.3043
14, 1500.00000, 249.315, -149.036, 0, 0, 0.196465, -160.514, 0.196465, 19.4856
14, 1800.00000, 250.406, -149.035, 0, 0, 0.195603, -160.513, 0.195603, 19.487
14, 2100.00000, 249.907, -149.063, 0, 0, 0.195992, -160.541, 0.195992, 19.4589
14, 2400.00000, 251.598, -149.079, 0, 0, 0.194678, -160.558, 0.194678, 19.4425
14, 2700.00000, 248.54, -149.135, 0, 0, 0.197066, -160.613, 0.197066, 19.3868
14, 3000.00000, 248.173, -149.206, 0, 0, 0.197361, -160.684, 0.197361, 19.3162
14, 3300.00000, 248.215, -149.319, 0, 0, 0.197328, -160.798, 0.197328, 19.2024
15, 0.00000, 249.568, -149.169, 0, 0, 0.196259, -160.647, 0.196259, 19.3528
15, 300.00000, 248.577, -149.038, 0, 0, 0.197039, -160.517, 0.197039, 19.4831
15, 600.00000, 242.516, -149.656, 0, 0, 0.201964, -161.135, 0.201964, 18.8654
15, 900.00000, 241.707, -149.829, 0, 0, 0.202644, -161.307, 0.202644, 18.6934
15, 1200.00000, 242.24, -149.808, 0, 0, 0.202192, -161.286, 0.202192, 18.7141
15, 1500.00000, 242.847, -149.763, 0, 0, 0.201683, -161.242, 0.201683, 18.7584
15, 1800.00000, 245.066, -149.413, 0, 0, 0.199864, -160.892, 0.199864, 19.1079
15, 2100.00000, 249.219, -149.018, 0, 0, 0.851667, -160.498, 0.851667, 19.5025
15, 2400.00000, 247.44, -149.279, 0, 0, 0.857758, -160.757, 0.857758, 19.2432
15, 2700.00000, 245.701, -149.513, 0, 0, 0.86383, -160.991, 0.86383, 19.0092
15, 3000.00000, 244.39, -149.617, 0, 0, 0.868465, -161.095, 0.868465, 18.9048
15, 3300.00000, 245.286, -149.584, 0, 0, 0.865297, -161.062, 0.865297, 18.9378
16, 0.00000, 247.933, -149.246, 0, 0, 0.856064, -160.724, 0.856064, 19.2755
16, 300.00000, 247.819, -149.365, 0, 0, 0.856453, -160.843, 0.856453, 19.1567
16, 600.00000, 244.307, -149.629, 0, 0, 1.2739, -161.107, 1.2739, 18.8928
16, 900.00000, 243.418, -149.558, 0, 0, 1.03463, -161.038, 1.03463, 18.9622
16, 1200.00000, 244.404, -149.54, 0, 0, 0.868357, -161.017, 0.868357, 18.9831
16, 1500.00000, 245.534, -149.422, 0, 0, 0.864422, -160.9, 0.864422, 19.0999
16, 1800.00000, 245.558, -149.419, 0, 0, 0.864337, -160.898, 0.864337, 19.1024
16, 2100.00000, 242.49, -149.833, 0, 0, 1.04359, -161.312, 1.04359, 18.6883
16, 2400.00000, 243.683, -149.557, 0, 0, 1.03849, -161.035, 1.03849, 18.9645
16, 2700.00000, 239.926, -149.863, 0, 0, 1.05474, -161.341, 1.05474, 18.6592
16, 3000.00000, 240.428, -149.7, 0, 0, 1.05254, -161.178, 1.05254, 18.8221
16, 3300.00000, 243.103, -149.974, 0, 0, 1.76629, -161.452, 1.76629, 18.5476
17, 0.00000, 243.453, -150.103, 0, 0, 2.03112, -161.577, 2.03112, 18.4234
17, 300.00000, 243.21, -150.399, 0, 0, 1.79823, -161.877, 1.79823, 18.1233
17, 600.00000, 242.298, -150.23, 0, 0, 1.65759, -161.708, 1.65759, 18.2915
17, 900.00000, 241.062, -150.1, 0, 0, 1.68471, -161.58, 1.68471, 18.4195
17, 1200.00000, 239.905, -150.388, 0, 0, 1.69285, -161.867, 1.69285, 18.1334
17, 1500.00000, 239.495, -150.197, 0, 0, 1.69574, -161.676, 1.69574, 18.3244
17, 1800.00000, 239.807, -150.27, 0, 0, 1.69354, -161.748, 1.69354, 18.2524
17, 2100.00000, 238.521, -150.205, 0, 0, 1.70258, -161.685, 1.70258, 18.315
17, 2400.00000, 239.982, -150.425, 0, 0, 1.6923, -161.903, 1.6923, 18.0966
17, 2700.00000, 239.848, -150.321, 0, 0, 1.85832, -161.799, 1.85832, 18.2008
17, 3000.00000, 240.694, -150.244, 0, 0, 2.09853, -161.722, 2.09853, 18.2777
17, 3300.00000, 237.931, -150.121, 0, 0, 2.12288, -161.6, 2.12288, 18.4002
18, 0.00000, 240.086, -149.956, 0, 0, 2.08005, -161.434, 2.08005, 18.5663
18, 300.00000, 238.646, -149.945, 0, 0, 2.05659, -161.425, 2.05659, 18.5751
18, 600.00000, 238.48, -149.781, 0, 0, 2.05807, -161.258, 2.05807, 18.7417
18, 900.00000, 239.699, -149.617, 0, 0, 2.04082, -161.095, 2.04082, 18.9051
18, 1200.00000, 238.663, -149.698, 0, 0, 2.02314, -161.178, 2.02314, 18.8217
18, 1500.00000, 237.218, -149.961, 0, 0, 2.01313, -161.439, 2.01313, 18.5607
18, 1800.00000, 237.572, -149.896, 0, 0, 1.94919, -161.374, 1.94919, 18.6261
18, 2100.00000, 236.753, -150.147, 0, 0, 2.07311, -161.626, 2.07311, 18.3745
18, 2400.00000, 239.261, -150.005, 0, 0, 2.05139, -161.483, 2.05139, 18.517
18, 2700.00000, 239.601, -150.107, 0, 0, 2.04847, -161.585, 2.04847, 18.4149
18, 3000.00000, 239.151, -149.976, 0, 0, 2.05233, -161.454, 2.05233, 18.5458
18, 3300.00000, 239.739, -150, 0, 0, 1.79962, -161.478, 1.79962, 18.5218
19, 0.00000, 240.136, -150.095, 0, 0, 1.63173, -161.574, 1.63173, 18.4264
19, 300.00000, 240.645, -150.082, 0, 0, 0.203534, -161.561, 0.203534, 18.4392
19, 600.00000, 240.238, -150.236, 0, 0, 0.203879, -161.713, 0.203879, 18.2872
19, 900.00000, 239.568, -150.446, 0, 0, 0.20445, -161.924, 0.20445, 18.0763
19, 1200.00000, 240.328, -150.452, 0, 0, 0.203806, -161.93, 0.203806, 18.0701
19, 1500.00000, 238.395, -150.148, 0, 0, 0.205455, -161.626, 0.205455, 18.3739
19, 1800.00000, 236.375, -150.217, 0, 0, 0.207209, -161.696, 0.207209, 18.3043
19, 2100.00000, 234.216, -149.911, 0, 0, 1.92651, -161.389, 1.92651, 18.6106
19, 2400.00000, 238.312, -149.982, 0, 0, 2.05957, -161.46, 2.05957, 18.5396
19, 2700.00000, 239.595, -149.997, 0, 0, 2.04853, -161.476, 2.04853, 18.5243
19, 3000.00000, 239.128, -150.209, 0, 0, 2.05252, -161.687, 2.05252, 18.3128
19, 3300.00000, 239.483, -150.321, 0, 0, 1.8015, -161.799, 1.8015, 18.2008
20, 0.00000, 239.027, -150.273, 0, 0, 1.63925, -161.753, 1.63925, 18.2473
20, 300.00000, 239.318, -150.189, 0, 0, 1.2809, -161.667, 1.2809, 18.3331
20, 600.00000, 239.565, -150.167, 0, 0, 1.05123, -161.646, 1.05123, 18.354
20, 900.00000, 239.736, -150.102, 0, 0, 0.977272, -161.581, 0.977272, 18.4191
20, 1200.00000, 238.845, -150.395, 0, 0, 0.922806, -161.873, 0.922806, 18.1269
20, 1500.00000, 238.714, -150.341, 0, 0, 0.959214, -161.821, 0.959214, 18.1794
20, 1800.00000, 238.853, -150.424, 0, 0, 1.20559, -161.902, 1.20559, 18.0979
20, 2100.00000, 238.81, -150.272, 0, 0, 1.02806, -161.75, 1.02806, 18.2495
20, 2400.00000, 238.483, -150.361, 0, 0, 0.800118, -161.839, 0.800118, 18.1615
20, 2700.00000, 238.11, -150.26, 0, 0, 1.1099, -161.739, 1.1099, 18.2608
20, 3000.00000, 238.704, -150.325, 0, 0, 1.74668, -161.803, 1.74668, 18.197
20, 3300.00000, 238.818, -150.402, 0, 0, 2.16116, -161.881, 2.16116, 18.1194
21, 0.00000, 238.219, -150.499, 0, 0, 2.1691, -161.976, 2.1691, 18.0237
21, 300.00000, 236.367, -150.448, 0, 0, 2.20169, -161.926, 2.20169, 18.0739
21, 600.00000, 237.931, -150.7, 0, 0, 2.18724, -162.178, 2.18724, 17.8223
21, 900.00000, 237.171, -150.57, 0, 0, 6.12835, -162.048, 6.12835, 17.9516
