hour, t(sec), V1, VAngle1, V2, VAngle2, I1, IAngle1, I2, IAngle2
0, 300.00000, 240.037, 89.977, 0, 0, 0.229556, 78.4986, 0.229556, -101.501
0, 600.00000, 239.455, 89.9648, 0, 0, 0.230111, 78.4865, 0.230111, -101.514
0, 900.00000, 239.568, 89.9426, 0, 0, 0.230006, 78.4644, 0.230006, -101.536
0, 1200.00000, 239.633, 89.9484, 0, 0, 0.229944, 78.4701, 0.229944, -101.53
0, 1500.00000, 239.745, 89.9693, 0, 0, 0.229837, 78.4909, 0.229837, -101.509
0, 1800.00000, 239.784, 89.9687, 0, 0, 0.229799, 78.4903, 0.229799, -101.51
0, 2100.00000, 239.583, 89.971, 0, 0, 0.22999, 78.4927, 0.22999, -101.507
0, 2400.00000, 239.417, 89.959, 0, 0, 0.230149, 78.4807, 0.230149, -101.519
0, 2700.00000, 239.876, 89.9835, 0, 0, 0.229712, 78.5051, 0.229712, -101.495
0, 3000.00000, 239.514, 89.974, 0, 0, 0.230055, 78.4956, 0.230055, -101.504
0, 3300.00000, 239.683, 89.969, 0, 0, 0.229897, 78.4907, 0.229897, -101.509
1, 0.00000, 239.608, 89.9591, 0, 0, 0.229967, 78.4808, 0.229967, -101.519
1, 300.00000, 239.848, 89.9486, 0, 0, 0.229739, 78.4703, 0.229739, -101.53
1, 600.00000, 239.74, 89.9589, 0, 0, 0.229841, 78.4805, 0.229841, -101.52
1, 900.00000, 239.718, 89.9639, 0, 0, 0.229862, 78.4855, 0.229862, -101.514
1, 1200.00000, 239.972, 89.776, 0, 0, 0.229619, 78.2978, 0.229619, -101.702
1, 1500.00000, 239.739, 89.9664, 0, 0, 0.22984, 78.4868, 0.22984, -101.513
1, 1800.00000, 239.847, 89.9677, 0, 0, 0.229738, 78.4893, 0.229738, -101.511
1, 2100.00000, 239.964, 89.9667, 0, 0, 0.229626, 78.4884, 0.229626, -101.512
1, 2400.00000, 240.021, 89.9584, 0, 0, 0.229572, 78.4801, 0.229572, -101.52
1, 2700.00000, 240.031, 89.9475, 0, 0, 0.229562, 78.4693, 0.229562, -101.531
1, 3000.00000, 239.98, 89.938, 0, 0, 0.229611, 78.4597, 0.229611, -101.54
1, 3300.00000, 240.088, 89.939, 0, 0, 0.229508, 78.4607, 0.229508, -101.539
2, 0.00000, 240.136, 89.9639, 0, 0, 0.229462, 78.4854, 0.229462, -101.515
2, 300.00000, 239.963, 89.9988, 0, 0, 0.229627, 78.5202, 0.229627, -101.48
2, 600.00000, 239.927, 89.9879, 0, 0, 0.229662, 78.5096, 0.229662, -101.49
2, 900.00000, 239.977, 89.9873, 0, 0, 0.229614, 78.5089, 0.229614, -101.491
2, 1200.00000, 239.931, 89.9891, 0, 0, 0.229658, 78.5107, 0.229658, -101.489
2, 1500.00000, 239.895, 89.9838, 0, 0, 0.229692, 78.5055, 0.229692, -101.494
2, 1800.00000, 239.419, 89.9873, 0, 0, 0.230146, 78.509, 0.230146, -101.491
2, 2100.00000, 239.973, 89.9971, 0, 0, 0.229619, 78.5187, 0.229619, -101.481
2, 2400.00000, 239.982, 89.9954, 0, 0, 0.229609, 78.5171, 0.229609, -101.483
2, 2700.00000, 240.011, 89.9787, 0, 0, 0.229582, 78.5004, 0.229582, -101.5
2, 3000.00000, 240.06, 89.9889, 0, 0, 0.229535, 78.5105, 0.229535, -101.489
2, 3300.00000, 240.181, 89.9959, 0, 0, 0.331383, 78.5176, 0.331383, -101.482
3, 0.00000, 240.185, 89.9952, 0, 0, 0.56929, 78.5168, 0.56929, -101.483
3, 300.00000, 240.098, 90.0135, 0, 0, 0.722494, 78.535, 0.722494, -101.465
3, 600.00000, 240.107, 90.0171, 0, 0, 0.569475, 78.5387, 0.569475, -101.461
3, 900.00000, 240.022, 89.9962, 0, 0, 0.22957, 78.518, 0.22957, -101.482
3, 1200.00000, 239.894, 89.987, 0, 0, 0.229692, 78.5087, 0.229692, -101.491
3, 1500.00000, 239.955, 89.9808, 0, 0, 0.229635, 78.5024, 0.229635, -101.498
3, 1800.00000, 239.963, 89.9985, 0, 0, 0.229627, 78.5201, 0.229627, -101.48
3, 2100.00000, 239.91, 90.0214, 0, 0, 0.229678, 78.543, 0.229678, -101.457
3, 2400.00000, 239.966, 90.0116, 0, 0, 0.229624, 78.5333, 0.229624, -101.467
3, 2700.00000, 239.991, 90.005, 0, 0, 0.229601, 78.5267, 0.229601, -101.473
3, 3000.00000, 239.942, 89.9918, 0, 0, 0.229647, 78.5135, 0.229647, -101.487
3, 3300.00000, 239.904, 89.9805, 0, 0, 0.229684, 78.5022, 0.229684, -101.498
4, 0.00000, 239.941, 89.9872, 0, 0, 0.229648, 78.5088, 0.229648, -101.491
4, 300.00000, 240.025, 90.024, 0, 0, 0.229568, 78.5455, 0.229568, -101.454
4, 600.00000, 240.109, 90.0264, 0, 0, 0.229488, 78.5481, 0.229488, -101.452
4, 900.00000, 240.156, 90.0271, 0, 0, 0.229443, 78.5488, 0.229443, -101.451
4, 1200.00000, 240.206, 90.0169, 0, 0, 0.229395, 78.5386, 0.229395, -101.461
4, 1500.00000, 240.143, 90.0057, 0, 0, 0.229455, 78.5274, 0.229455, -101.473
4, 1800.00000, 240.163, 90.0037, 0, 0, 0.229436, 78.5253, 0.229436, -101.475
4, 2100.00000, 240.232, 90.0142, 0, 0, 0.229371, 78.5358, 0.229371, -101.464
4, 2400.00000, 240.227, 89.9971, 0, 0, 0.229375, 78.5189, 0.229375, -101.481
4, 2700.00000, 240.255, 89.994, 0, 0, 0.229348, 78.5156, 0.229348, -101.484
4, 3000.00000, 240.214, 90.0045, 0, 0, 0.229387, 78.5261, 0.229387, -101.474
4, 3300.00000, 240.183, 90.0034, 0, 0, 0.229416, 78.5251, 0.229416, -101.475
5, 0.00000, 240.23, 89.9958, 0, 0, 0.229372, 78.5175, 0.229372, -101.483
5, 300.00000, 240.228, 90.0137, 0, 0, 0.229374, 78.5353, 0.229374, -101.465
5, 600.00000, 240.243, 90.0047, 0, 0, 0.22936, 78.5264, 0.22936, -101.474
5, 900.00000, 240.29, 90.0039, 0, 0, 0.229314, 78.5255, 0.229314, -101.474
5, 1200.00000, 240.254, 90.0169, 0, 0, 0.229349, 78.5385, 0.229349, -101.461
5, 1500.00000, 240.242, 90.0182, 0, 0, 0.22936, 78.5398, 0.22936, -101.46
5, 1800.00000, 240.42, 90.0324, 0, 0, 0.229191, 78.554, 0.229191, -101.446
5, 2100.00000, 240.6, 90.0387, 0, 0, 0.229019, 78.5603, 0.229019, -101.44
5, 2400.00000, 240.76, 90.0444, 0, 0, 0.228867, 78.5661, 0.228867, -101.434
5, 2700.00000, 240.728, 90.0593, 0, 0, 0.228898, 78.5809, 0.228898, -101.419
5, 3000.00000, 240.378, 90.0686, 0, 0, 0.22923, 78.5901, 0.22923, -101.41
5, 3300.00000, 241.046, 90.0909, 0, 0, 0.228593, 78.6127, 0.228593, -101.387
6, 0.00000, 241.3, 90.167, 0, 0, 0.228356, 78.688, 0.228356, -101.312
6, 300.00000, 241.504, 90.2351, 0, 0, 0.228161, 78.7569, 0.228161, -101.243
6, 600.00000, 242.175, 90.2706, 0, 0, 0.227525, 78.792, 0.227525, -101.208
6, 900.00000, 242.809, 90.2976, 0, 0, 0.226936, 78.8193, 0.226936, -101.181
6, 1200.00000, 241.991, 90.1904, 0, 0, 0.227709, 78.7119, 0.227709, -101.288
6, 1500.00000, 241.595, 90.134, 0, 0, 0.22808, 78.6552, 0.22808, -101.345
6, 1800.00000, 240.768, 90.1531, 0, 0, 0.228863, 78.674, 0.228863, -101.326
6, 2100.00000, 240.441, 90.1854, 0, 0, 0.246146, 78.707, 0.246146, -101.293
6, 2400.00000, 240.57, 90.2745, 0, 0, 2.2294, 78.7964, 2.2294, -101.204
6, 2700.00000, 241.266, 90.3653, 0, 0, 3.96373, 78.888, 3.96373, -101.112
6, 3000.00000, 242.633, 90.4049, 0, 0, 0.445767, 78.9264, 0.445767, -101.074
6, 3300.00000, 241.939, 90.3755, 0, 0, 0.649533, 78.8962, 0.649533, -101.104
7, 0.00000, 242.68, 90.3317, 0, 0, 0.647503, 78.8543, 0.647503, -101.146
7, 300.00000, 242.869, 90.3443, 0, 0, 2.35784, 78.8662, 2.35784, -101.134
7, 600.00000, 243.256, 90.3819, 0, 0, 1.60071, 78.9028, 1.60071, -101.097
7, 900.00000, 243.158, 90.4013, 0, 0, 0.881261, 78.923, 0.881261, -101.077
7, 1200.00000, 243.656, 90.2535, 0, 0, 1.28485, 78.7753, 1.28485, -101.225
7, 1500.00000, 242.548, 90.3784, 0, 0, 0.227179, 78.8998, 0.227179, -101.1
7, 1800.00000, 242.471, 90.4334, 0, 0, 0.227252, 78.955, 0.227252, -101.045
7, 2100.00000, 242.422, 90.3349, 0, 0, 0.227298, 78.8567, 0.227298, -101.143
7, 2400.00000, 241.066, 90.4865, 0, 0, 0.228575, 79.0079, 0.228575, -100.992
7, 2700.00000, 241.787, 90.4472, 0, 0, 0.227896, 78.9689, 0.227896, -101.031
7, 3000.00000, 242.311, 90.39, 0, 0, 0.227403, 78.9115, 0.227403, -101.088
7, 3300.00000, 244.248, 90.4099, 0, 0, 0.225599, 78.9316, 0.225599, -101.068
8, 0.00000, 243.624, 90.2832, 0, 0, 0.226175, 78.8051, 0.226175, -101.195
8, 300.00000, 241.517, 90.3068, 0, 0, 0.228148, 78.8283, 0.228148, -101.172
8, 600.00000, 243.445, 90.2399, 0, 0, 0.226345, 78.7617, 0.226345, -101.238
8, 900.00000, 244.359, 90.3501, 0, 0, 0.225498, 78.8717, 0.225498, -101.128
8, 1200.00000, 245.332, 90.6378, 0, 0, 0.224603, 79.1592, 0.224603, -100.841
8, 1500.00000, 243.531, 90.359, 0, 0, 0.226262, 78.8808, 0.226262, -101.119
8, 1800.00000, 244.466, 90.4193, 0, 0, 0.225397, 78.9409, 0.225397, -101.059
8, 2100.00000, 240.819, 90.1974, 0, 0, 0.228811, 78.7191, 0.228811, -101.281
8, 2400.00000, 239.323, 90.0365, 0, 0, 0.230241, 78.5581, 0.230241, -101.442
8, 2700.00000, 242.836, 90.167, 0, 0, 0.22691, 78.6887, 0.22691, -101.311
8, 3000.00000, 245.158, 90.2904, 0, 0, 0.224762, 78.812, 0.224762, -101.188
8, 3300.00000, 244.673, 90.2942, 0, 0, 0.225205, 78.8158, 0.225205, -101.184
9, 0.00000, 243.849, 90.3045, 0, 0, 0.225966, 78.8261, 0.225966, -101.174
9, 300.00000, 244.584, 90.3417, 0, 0, 0.22529, 78.8633, 0.22529, -101.137
9, 600.00000, 245.54, 90.4702, 0, 0, 0.224414, 78.9916, 0.224414, -101.008
9, 900.00000, 244.928, 90.3894, 0, 0, 0.22497, 78.9113, 0.22497, -101.089
9, 1200.00000, 245.445, 90.2777, 0, 0, 0.224499, 78.7997, 0.224499, -101.2
9, 1500.00000, 244.131, 90.389, 0, 0, 0.225705, 78.9103, 0.225705, -101.09
9, 1800.00000, 242.475, 90.2402, 0, 0, 0.227247, 78.7621, 0.227247, -101.238
9, 2100.00000, 246.089, 90.4002, 0, 0, 0.223918, 78.9217, 0.223918, -101.078
9, 2400.00000, 245.297, 90.4895, 0, 0, 0.224634, 79.011, 0.224634, -100.989
9, 2700.00000, 245.699, 90.5285, 0, 0, 0.224267, 79.0501, 0.224267, -100.95
9, 3000.00000, 244.694, 90.5098, 0, 0, 0.225187, 79.0314, 0.225187, -100.969
9, 3300.00000, 245.313, 90.53, 0, 0, 0.224617, 79.0517, 0.224617, -100.948
10, 0.00000, 242.34, 90.25, 0, 0, 0.227375, 78.7717, 0.227375, -101.228
10, 300.00000, 243.929, 90.4403, 0, 0, 1.0617, 78.9617, 1.0617, -101.038
10, 600.00000, 245.336, 90.602, 0, 0, 1.65285, 79.1234, 1.65285, -100.877
10, 900.00000, 244.451, 90.5567, 0, 0, 0.759722, 79.0784, 0.759722, -100.922
10, 1200.00000, 240.437, 90.4087, 0, 0, 0.772402, 78.9303, 0.772402, -101.07
10, 1500.00000, 239.098, 90.3069, 0, 0, 0.77673, 78.8285, 0.77673, -101.171
10, 1800.00000, 243.889, 90.6297, 0, 0, 0.761473, 79.1514, 0.761473, -100.849
10, 2100.00000, 243.625, 90.5014, 0, 0, 0.762298, 79.0234, 0.762298, -100.977
10, 2400.00000, 242.865, 90.3382, 0, 0, 0.764687, 78.8599, 0.764687, -101.14
10, 2700.00000, 245.988, 90.5213, 0, 0, 0.754964, 79.043, 0.754964, -100.957
10, 3000.00000, 245.362, 90.5138, 0, 0, 0.756901, 79.0353, 0.756901, -100.965
10, 3300.00000, 244.772, 90.4462, 0, 0, 0.758725, 78.968, 0.758725, -101.032
11, 0.00000, 245.944, 90.5351, 0, 0, 0.755104, 79.0567, 0.755104, -100.943
11, 300.00000, 243.879, 90.3791, 0, 0, 0.794142, 78.9008, 0.794142, -101.099
11, 600.00000, 241.048, 90.1532, 0, 0, 0.825478, 78.6748, 0.825478, -101.325
11, 900.00000, 241.493, 90.2279, 0, 0, 0.823963, 78.7487, 0.823963, -101.251
11, 1200.00000, 244.699, 90.4985, 0, 0, 0.813148, 79.02, 0.813148, -100.98
11, 1500.00000, 245.656, 90.5982, 0, 0, 0.809982, 79.1197, 0.809982, -100.88
11, 1800.00000, 245.49, 90.5102, 0, 0, 0.810534, 79.0323, 0.810534, -100.968
11, 2100.00000, 245.629, 90.5488, 0, 0, 0.22433, 79.0703, 0.22433, -100.93
11, 2400.00000, 245.653, 90.5271, 0, 0, 0.224304, 79.049, 0.224304, -100.951
11, 2700.00000, 244.945, 90.4779, 0, 0, 0.224957, 78.9996, 0.224957, -101
11, 3000.00000, 240.578, 90.1292, 0, 0, 0.229041, 78.6509, 0.229041, -101.349
11, 3300.00000, 241.751, 90.2311, 0, 0, 0.227928, 78.7527, 0.227928, -101.247
12, 0.00000, 244.088, 90.3098, 0, 0, 0.225748, 78.8315, 0.225748, -101.169
12, 300.00000, 242.239, 90.2002, 0, 0, 0.22747, 78.7218, 0.22747, -101.278
12, 600.00000, 244.234, 90.3684, 0, 0, 0.225611, 78.89, 0.225611, -101.11
12, 900.00000, 245.436, 90.4679, 0, 0, 0.224507, 78.9895, 0.224507, -101.011
12, 1200.00000, 242.372, 90.2369, 0, 0, 0.227345, 78.7586, 0.227345, -101.241
12, 1500.00000, 243.021, 90.1934, 0, 0, 0.226729, 78.7159, 0.226729, -101.284
12, 1800.00000, 242.934, 90.2433, 0, 0, 0.226821, 78.7641, 0.226821, -101.236
12, 2100.00000, 243.948, 90.3067, 0, 0, 0.225876, 78.8284, 0.225876, -101.172
12, 2400.00000, 244.643, 90.4362, 0, 0, 0.225234, 78.9577, 0.225234, -101.042
12, 2700.00000, 246.364, 90.5082, 0, 0, 0.223655, 79.0302, 0.223655, -100.97
12, 3000.00000, 245.182, 90.4384, 0, 0, 0.224739, 78.9601, 0.224739, -101.04
12, 3300.00000, 242.355, 90.2956, 0, 0, 0.227362, 78.8173, 0.227362, -101.183
13, 0.00000, 241.796, 90.2373, 0, 0, 0.227891, 78.7586, 0.227891, -101.241
13, 300.00000, 243.836, 90.328, 0, 0, 0.225979, 78.8497, 0.225979, -101.15
13, 600.00000, 246.615, 90.4994, 0, 0, 0.223434, 79.0211, 0.223434, -100.979
13, 900.00000, 246.263, 90.5117, 0, 0, 0.223753, 79.0332, 0.223753, -100.967
13, 1200.00000, 245.188, 90.5164, 0, 0, 0.224732, 79.0379, 0.224732, -100.962
13, 1500.00000, 245.294, 90.5606, 0, 0, 0.224637, 79.0821, 0.224637, -100.918
13, 1800.00000, 244.841, 90.5509, 0, 0, 0.225063, 79.0717, 0.225063, -100.928
13, 2100.00000, 244.134, 90.5269, 0, 0, 0.225699, 79.0487, 0.225699, -100.951
13, 2400.00000, 245.312, 90.5137, 0, 0, 0.224625, 79.0356, 0.224625, -100.964
13, 2700.00000, 245.086, 90.4562, 0, 0, 0.224828, 78.978, 0.224828, -101.022
13, 3000.00000, 243.739, 90.3844, 0, 0, 0.226071, 78.906, 0.226071, -101.094
13, 3300.00000, 245.91, 90.4942, 0, 0, 0.224074, 79.0159, 0.224074, -100.984
14, 0.00000, 245.786, 90.4906, 0, 0, 0.224192, 79.0118, 0.224192, -100.988
14, 300.00000, 245.356, 90.405, 0, 0, 0.22458, 78.9269, 0.22458, -101.073
14, 600.00000, 245.174, 90.4181, 0, 0, 0.224745, 78.9397, 0.224745, -101.06
14, 900.00000, 244.117, 90.1403, 0, 0, 0.225721, 78.6623, 0.225721, -101.338
14, 1200.00000, 243.308, 89.9893, 0, 0, 0.226471, 78.511, 0.226471, -101.489
14, 1500.00000, 245.969, 90.3258, 0, 0, 0.224021, 78.8469, 0.224021, -101.153
14, 1800.00000, 245.904, 90.4063, 0, 0, 0.224079, 78.9277, 0.224079, -101.072
14, 2100.00000, 244.544, 90.4076, 0, 0, 0.225325, 78.929, 0.225325, -101.071
14, 2400.00000, 246.083, 90.551, 0, 0, 0.223919, 79.0724, 0.223919, -100.928
14, 2700.00000, 244.103, 90.3296, 0, 0, 0.225731, 78.8515, 0.225731, -101.148
14, 3000.00000, 242.904, 90.3673, 0, 0, 0.226847, 78.8888, 0.226847, -101.111
14, 3300.00000, 241.929, 90.4287, 0, 0, 0.227762, 78.9502, 0.227762, -101.05
15, 0.00000, 242.869, 90.4591, 0, 0, 0.226879, 78.9808, 0.226879, -101.019
15, 300.00000, 242.296, 90.2998, 0, 0, 0.227416, 78.8218, 0.227416, -101.178
15, 600.00000, 240.814, 90.0931, 0, 0, 0.228816, 78.6148, 0.228816, -101.385
15, 900.00000, 241.341, 90.097, 0, 0, 0.228314, 78.6191, 0.228314, -101.381
15, 1200.00000, 241.048, 90.1537, 0, 0, 0.228594, 78.675, 0.228594, -101.325
15, 1500.00000, 241.559, 90.1841, 0, 0, 0.228107, 78.7061, 0.228107, -101.294
15, 1800.00000, 242.593, 90.1798, 0, 0, 0.227137, 78.7016, 0.227137, -101.298
15, 2100.00000, 242.939, 90.3726, 0, 0, 0.226812, 78.894, 0.226812, -101.106
15, 2400.00000, 242.302, 90.3447, 0, 0, 0.227411, 78.8664, 0.227411, -101.134
15, 2700.00000, 241.325, 90.3195, 0, 0, 0.228331, 78.8411, 0.228331, -101.159
15, 3000.00000, 241.598, 90.2404, 0, 0, 0.228074, 78.7621, 0.228074, -101.238
15, 3300.00000, 243.089, 90.2788, 0, 0, 0.226674, 78.8005, 0.226674, -101.2
16, 0.00000, 244.808, 90.3217, 0, 0, 0.225082, 78.8435, 0.225082, -101.157
16, 300.00000, 244.41, 90.3618, 0, 0, 0.814124, 78.8834, 0.814124, -101.117
16, 600.00000, 242.797, 90.1837, 0, 0, 0.819532, 78.7054, 0.819532, -101.295
16, 900.00000, 241.507, 90.1262, 0, 0, 0.850137, 78.6467, 0.850137, -101.353
16, 1200.00000, 241.712, 90.1883, 0, 0, 0.954073, 78.7099, 0.954073, -101.29
16, 1500.00000, 242.371, 90.24, 0, 0, 0.951483, 78.7616, 0.951483, -101.238
16, 1800.00000, 242.366, 90.2311, 0, 0, 0.951505, 78.7526, 0.951505, -101.247
16, 2100.00000, 241.858, 90.1855, 0, 0, 1.37878, 78.7072, 1.37878, -101.293
16, 2400.00000, 242.813, 90.1175, 0, 0, 0.949752, 78.6392, 0.949752, -101.361
16, 2700.00000, 241.93, 89.9256, 0, 0, 0.95322, 78.4473, 0.95322, -101.553
16, 3000.00000, 241.422, 89.9099, 0, 0, 0.900298, 78.4302, 0.900298, -101.57
16, 3300.00000, 241.31, 90.324, 0, 0, 0.951441, 78.8455, 0.951441, -101.154
17, 0.00000, 241.324, 90.4456, 0, 0, 0.900675, 78.966, 0.900675, -101.034
17, 300.00000, 241.712, 90.5399, 0, 0, 0.227966, 79.0615, 0.227966, -100.939
17, 600.00000, 240.668, 90.3724, 0, 0, 0.228955, 78.8941, 0.228955, -101.106
17, 900.00000, 239.929, 90.2092, 0, 0, 0.229654, 78.7313, 0.229654, -101.269
17, 1200.00000, 241.359, 90.2023, 0, 0, 0.228299, 78.7239, 0.228299, -101.276
17, 1500.00000, 239.922, 90.0973, 0, 0, 0.229666, 78.619, 0.229666, -101.381
17, 1800.00000, 240.559, 90.1654, 0, 0, 0.229063, 78.6867, 0.229063, -101.313
17, 2100.00000, 240.614, 90.0118, 0, 0, 0.229004, 78.5352, 0.229004, -101.465
17, 2400.00000, 241.252, 90.2544, 0, 0, 0.228401, 78.776, 0.228401, -101.224
17, 2700.00000, 241.291, 90.1713, 0, 0, 0.228363, 78.693, 0.228363, -101.307
17, 3000.00000, 240.657, 90.2243, 0, 0, 0.228963, 78.7459, 0.228963, -101.254
17, 3300.00000, 241.357, 89.9946, 0, 0, 0.228301, 78.5164, 0.228301, -101.484
18, 0.00000, 240.982, 90.0687, 0, 0, 0.228657, 78.5893, 0.228657, -101.411
18, 300.00000, 242.029, 89.9457, 0, 0, 0.227662, 78.4697, 0.227662, -101.53
18, 600.00000, 240.99, 89.856, 0, 0, 0.228651, 78.3773, 0.228651, -101.623
18, 900.00000, 242.477, 89.8627, 0, 0, 0.227247, 78.3844, 0.227247, -101.616
18, 1200.00000, 242.373, 89.7834, 0, 0, 0.227344, 78.3071, 0.227344, -101.693
18, 1500.00000, 241.201, 89.7682, 0, 0, 0.228449, 78.2899, 0.228449, -101.71
18, 1800.00000, 240.062, 89.8085, 0, 0, 0.229527, 78.3293, 0.229527, -101.671
18, 2100.00000, 240.453, 89.8443, 0, 0, 0.229159, 78.366, 0.229159, -101.634
18, 2400.00000, 238.513, 90.0813, 0, 0, 0.231023, 78.6029, 0.231023, -101.397
18, 2700.00000, 238.913, 90.1926, 0, 0, 0.230636, 78.7143, 0.230636, -101.286
18, 3000.00000, 239.213, 90.0736, 0, 0, 0.230348, 78.5953, 0.230348, -101.405
18, 3300.00000, 238.754, 90.14, 0, 0, 0.230786, 78.6611, 0.230786, -101.339
19, 0.00000, 239.158, 90.216, 0, 0, 0.2304, 78.7376, 0.2304, -101.262
19, 300.00000, 239.196, 90.2308, 0, 0, 0.230363, 78.7532, 0.230363, -101.247
19, 600.00000, 240.172, 90.2478, 0, 0, 0.229436, 78.7686, 0.229436, -101.231
19, 900.00000, 240.444, 90.3016, 0, 0, 0.229169, 78.8231, 0.229169, -101.177
19, 1200.00000, 239.99, 90.3664, 0, 0, 0.229601, 78.888, 0.229601, -101.112
19, 1500.00000, 238.889, 90.0846, 0, 0, 0.230659, 78.6064, 0.230659, -101.394
19, 1800.00000, 240.152, 89.8754, 0, 0, 0.229447, 78.3972, 0.229447, -101.603
19, 2100.00000, 238.298, 89.5767, 0, 0, 0.91208, 78.0986, 0.91208, -101.901
19, 2400.00000, 237.139, 89.9799, 0, 0, 0.916537, 78.5014, 0.916537, -101.499
19, 2700.00000, 236.036, 90.1472, 0, 0, 0.92082, 78.6687, 0.92082, -101.331
19, 3000.00000, 238.849, 90.1778, 0, 0, 0.909978, 78.6994, 0.909978, -101.301
19, 3300.00000, 239.193, 90.2546, 0, 0, 1.02044, 78.7762, 1.02044, -101.224
20, 0.00000, 239.327, 90.1734, 0, 0, 1.13156, 78.696, 1.13156, -101.304
20, 300.00000, 238.11, 90.1582, 0, 0, 1.11757, 78.6793, 1.11757, -101.321
20, 600.00000, 238.043, 90.1619, 0, 0, 1.0888, 78.6839, 1.0888, -101.316
20, 900.00000, 237.959, 90.1536, 0, 0, 0.883348, 78.6754, 0.883348, -101.325
20, 1200.00000, 240.528, 90.1614, 0, 0, 0.87393, 78.683, 0.87393, -101.317
20, 1500.00000, 240.447, 90.1308, 0, 0, 0.874211, 78.6531, 0.874211, -101.347
20, 1800.00000, 240.431, 90.1774, 0, 0, 0.874282, 78.699, 0.874282, -101.301
20, 2100.00000, 239.564, 90.1055, 0, 0, 0.877443, 78.6272, 0.877443, -101.373
20, 2400.00000, 240.151, 90.1126, 0, 0, 0.87532, 78.6337, 0.87532, -101.366
20, 2700.00000, 239.817, 90.0554, 0, 0, 1.09094, 78.578, 1.09094, -101.422
20, 3000.00000, 239.932, 90.1705, 0, 0, 1.54806, 78.6922, 1.54806, -101.308
20, 3300.00000, 239.846, 90.2377, 0, 0, 1.69582, 78.7593, 1.69582, -101.241
21, 0.00000, 239.994, 90.2153, 0, 0, 1.8921, 78.7362, 1.8921, -101.264
21, 300.00000, 240.156, 90.0187, 0, 0, 1.72082, 78.5405, 1.72082, -101.459
21, 600.00000, 240.134, 90.2505, 0, 0, 1.6615, 78.7718, 1.6615, -101.228
21, 900.00000, 239.749, 90.1399, 0, 0, 1.7663, 78.6617, 1.7663, -101.338
21, 1200.00000, 240.662, 90.1856, 0, 0, 1.89105, 78.7071, 1.89105, -101.293
21, 1500.00000, 239.992, 90.2218, 0, 0, 1.98305, 78.7435, 1.98305, -101.256
21, 1800.00000, 239.548, 90.1523, 0, 0, 2.21925, 78.6754, 2.21925, -101.325
