hour, t(sec), V1, VAngle1, V2, VAngle2, I1, IAngle1, I2, IAngle2
0, 300.00000, 239.698, -150.003, 0, 0, 2.99186, -161.481, 2.99186, 18.5186
0, 600.00000, 239.694, -149.97, 0, 0, 0.685399, -161.448, 0.685399, 18.5515
0, 900.00000, 239.494, -149.972, 0, 0, 0.476341, -161.451, 0.476341, 18.5493
0, 1200.00000, 239.531, -149.98, 0, 0, 0.677345, -161.459, 0.677345, 18.5413
0, 1500.00000, 239.685, -149.994, 0, 0, 0.676911, -161.472, 0.676911, 18.5276
0, 1800.00000, 239.617, -150, 0, 0, 0.6771, -161.479, 0.6771, 18.5215
0, 2100.00000, 239.675, -149.993, 0, 0, 0.174556, -161.471, 0.174556, 18.5291
0, 2400.00000, 239.5, -149.983, 0, 0, 0.174683, -161.462, 0.174683, 18.5383
0, 2700.00000, 239.678, -150.018, 0, 0, 0.174554, -161.496, 0.174554, 18.504
0, 3000.00000, 239.694, -149.991, 0, 0, 0.174543, -161.47, 0.174543, 18.5303
0, 3300.00000, 239.629, -149.996, 0, 0, 0.174589, -161.475, 0.174589, 18.5253
1, 0.00000, 239.573, -149.988, 0, 0, 0.17463, -161.466, 0.17463, 18.534
1, 300.00000, 239.493, -149.997, 0, 0, 0.174688, -161.476, 0.174688, 18.5242
1, 600.00000, 239.578, -149.99, 0, 0, 0.174627, -161.469, 0.174627, 18.5314
1, 900.00000, 239.56, -149.993, 0, 0, 0.576738, -161.472, 0.576738, 18.5283
1, 1200.00000, 238.098, -149.975, 0, 0, 0.681419, -161.454, 0.681419, 18.5465
1, 1500.00000, 239.565, -149.995, 0, 0, 0.677283, -161.473, 0.677283, 18.5271
1, 1800.00000, 239.524, -150.007, 0, 0, 0.576824, -161.485, 0.576824, 18.515
1, 2100.00000, 239.546, -150.016, 0, 0, 0.17465, -161.495, 0.17465, 18.5054
1, 2400.00000, 239.435, -150.023, 0, 0, 0.174731, -161.501, 0.174731, 18.4987
1, 2700.00000, 239.344, -150.023, 0, 0, 0.174797, -161.502, 0.174797, 18.4982
1, 3000.00000, 239.305, -150.018, 0, 0, 0.174826, -161.496, 0.174826, 18.5037
1, 3300.00000, 239.307, -150.022, 0, 0, 0.174825, -161.5, 0.174825, 18.4997
2, 0.00000, 239.51, -150.026, 0, 0, 0.174678, -161.504, 0.174678, 18.4955
2, 300.00000, 239.841, -150.016, 0, 0, 0.174437, -161.495, 0.174437, 18.5055
2, 600.00000, 239.789, -150.008, 0, 0, 0.37533, -161.486, 0.37533, 18.5141
2, 900.00000, 239.764, -150.012, 0, 0, 0.676685, -161.49, 0.676685, 18.5096
2, 1200.00000, 239.754, -150.013, 0, 0, 0.676715, -161.491, 0.676715, 18.5085
2, 1500.00000, 239.74, -150.008, 0, 0, 0.676752, -161.486, 0.676752, 18.5138
2, 1800.00000, 239.822, -149.986, 0, 0, 0.274865, -161.464, 0.274865, 18.5356
2, 2100.00000, 239.83, -150.019, 0, 0, 0.174443, -161.497, 0.174443, 18.5031
2, 2400.00000, 239.829, -150.016, 0, 0, 0.174444, -161.495, 0.174444, 18.5055
2, 2700.00000, 239.725, -150.012, 0, 0, 0.174519, -161.491, 0.174519, 18.5092
2, 3000.00000, 239.721, -150.023, 0, 0, 0.174523, -161.502, 0.174523, 18.4983
2, 3300.00000, 239.709, -150.035, 0, 0, 0.174531, -161.513, 0.174531, 18.4867
3, 0.00000, 239.696, -150.038, 0, 0, 0.174541, -161.516, 0.174541, 18.4837
3, 300.00000, 239.89, -150.035, 0, 0, 0.1744, -161.514, 0.1744, 18.4862
3, 600.00000, 239.922, -150.036, 0, 0, 0.174377, -161.515, 0.174377, 18.4853
3, 900.00000, 239.873, -150.02, 0, 0, 0.174412, -161.499, 0.174412, 18.5013
3, 1200.00000, 239.88, -150.004, 0, 0, 0.174407, -161.483, 0.174407, 18.5175
3, 1500.00000, 239.829, -150.006, 0, 0, 0.174444, -161.484, 0.174444, 18.5155
3, 1800.00000, 239.894, -150.016, 0, 0, 0.174397, -161.494, 0.174397, 18.5058
3, 2100.00000, 240.038, -150.018, 0, 0, 0.174293, -161.496, 0.174293, 18.5036
3, 2400.00000, 239.953, -150.02, 0, 0, 0.174354, -161.498, 0.174354, 18.5017
3, 2700.00000, 239.935, -150.019, 0, 0, 0.174367, -161.497, 0.174367, 18.5029
3, 3000.00000, 239.887, -150.009, 0, 0, 0.174402, -161.488, 0.174402, 18.5122
3, 3300.00000, 239.797, -150.002, 0, 0, 0.174467, -161.481, 0.174467, 18.5194
4, 0.00000, 239.854, -150.003, 0, 0, 0.174426, -161.481, 0.174426, 18.519
4, 300.00000, 240.048, -150.019, 0, 0, 0.174286, -161.497, 0.174286, 18.5026
4, 600.00000, 240.036, -150.025, 0, 0, 0.174293, -161.503, 0.174293, 18.4971
4, 900.00000, 240.071, -150.026, 0, 0, 0.174268, -161.504, 0.174268, 18.4956
4, 1200.00000, 239.987, -150.029, 0, 0, 0.174329, -161.507, 0.174329, 18.4929
4, 1500.00000, 239.988, -150.011, 0, 0, 0.375018, -161.49, 0.375018, 18.5105
4, 1800.00000, 239.963, -150.008, 0, 0, 0.676123, -161.486, 0.676123, 18.5136
4, 2100.00000, 240.003, -150.013, 0, 0, 0.676014, -161.491, 0.676014, 18.5092
4, 2400.00000, 239.945, -150.004, 0, 0, 0.676175, -161.482, 0.676175, 18.5176
4, 2700.00000, 239.978, -150, 0, 0, 0.274685, -161.479, 0.274685, 18.5213
4, 3000.00000, 240.055, -149.999, 0, 0, 0.17428, -161.477, 0.17428, 18.5226
4, 3300.00000, 240.123, -149.988, 0, 0, 0.174231, -161.467, 0.174231, 18.5333
5, 0.00000, 240.051, -149.986, 0, 0, 0.378321, -161.464, 0.378321, 18.536
5, 300.00000, 240.167, -149.987, 0, 0, 0.208189, -161.466, 0.208189, 18.5344
5, 600.00000, 240.152, -149.98, 0, 0, 0.552371, -161.458, 0.552371, 18.5419
5, 900.00000, 240.192, -149.977, 0, 0, 0.492804, -161.455, 0.492804, 18.5447
5, 1200.00000, 240.328, -149.971, 0, 0, 0.492524, -161.449, 0.492524, 18.5511
5, 1500.00000, 240.388, -149.96, 0, 0, 0.492401, -161.439, 0.492401, 18.5613
5, 1800.00000, 240.553, -149.952, 0, 0, 0.492064, -161.43, 0.492064, 18.5697
5, 2100.00000, 240.804, -149.921, 0, 0, 0.521212, -161.399, 0.521212, 18.6007
5, 2400.00000, 240.87, -149.92, 0, 0, 0.939621, -161.398, 0.939621, 18.6021
5, 2700.00000, 240.732, -149.955, 0, 0, 1.14023, -161.433, 1.14023, 18.5673
5, 3000.00000, 240.948, -149.914, 0, 0, 1.13921, -161.392, 1.13921, 18.6076
5, 3300.00000, 241.024, -149.949, 0, 0, 0.673148, -161.427, 0.673148, 18.5726
6, 0.00000, 241.289, -150.001, 0, 0, 0.173388, -161.478, 0.173388, 18.5219
6, 300.00000, 242.109, -149.944, 0, 0, 0.172796, -161.422, 0.172796, 18.5776
6, 600.00000, 242.279, -149.98, 0, 0, 0.17268, -161.458, 0.17268, 18.5419
6, 900.00000, 243.321, -149.851, 0, 0, 0.171941, -161.329, 0.171941, 18.6708
6, 1200.00000, 242.645, -149.825, 0, 0, 0.172426, -161.304, 0.172426, 18.6956
6, 1500.00000, 242.477, -149.781, 0, 0, 0.172541, -161.259, 0.172541, 18.7406
6, 1800.00000, 242.826, -149.711, 0, 0, 0.172288, -161.19, 0.172288, 18.8099
6, 2100.00000, 242.452, -149.805, 0, 0, 0.172559, -161.283, 0.172559, 18.717
6, 2400.00000, 242.856, -149.834, 0, 0, 0.172265, -161.312, 0.172265, 18.6884
6, 2700.00000, 243.673, -149.814, 0, 0, 0.171682, -161.292, 0.171682, 18.7083
6, 3000.00000, 243.442, -149.947, 0, 0, 0.17186, -161.423, 0.17186, 18.5768
6, 3300.00000, 242.794, -149.997, 0, 0, 0.172319, -161.475, 0.172319, 18.5253
7, 0.00000, 243.337, -149.878, 0, 0, 0.171925, -161.359, 0.171925, 18.6411
7, 300.00000, 243.754, -149.81, 0, 0, 0.171629, -161.289, 0.171629, 18.7108
7, 600.00000, 243.413, -149.911, 0, 0, 0.171881, -161.388, 0.171881, 18.6124
7, 900.00000, 244.244, -149.801, 0, 0, 0.467082, -161.28, 0.467082, 18.7203
7, 1200.00000, 243.404, -149.723, 0, 0, 0.666564, -161.201, 0.666564, 18.7987
7, 1500.00000, 244.859, -149.621, 0, 0, 0.662611, -161.1, 0.662611, 18.9003
7, 1800.00000, 245.576, -149.556, 0, 0, 0.660673, -161.034, 0.660673, 18.966
7, 2100.00000, 245.372, -149.5, 0, 0, 0.170503, -160.979, 0.170503, 19.0211
7, 2400.00000, 246.667, -149.398, 0, 0, 0.16961, -160.877, 0.16961, 19.1232
7, 2700.00000, 245.137, -149.646, 0, 0, 0.170666, -161.124, 0.170666, 18.8762
7, 3000.00000, 241.764, -150.198, 0, 0, 0.173048, -161.677, 0.173048, 18.3235
7, 3300.00000, 243.765, -149.852, 0, 0, 0.171628, -161.331, 0.171628, 18.6689
8, 0.00000, 244.523, -149.597, 0, 0, 0.171095, -161.076, 0.171095, 18.924
8, 300.00000, 245.254, -149.44, 0, 0, 0.170586, -160.919, 0.170586, 19.0814
8, 600.00000, 244.701, -149.508, 0, 0, 0.17097, -160.986, 0.17097, 19.0142
8, 900.00000, 244.557, -149.661, 0, 0, 0.171071, -161.139, 0.171071, 18.861
8, 1200.00000, 245.288, -149.884, 0, 0, 0.170562, -161.362, 0.170562, 18.6384
8, 1500.00000, 244.14, -149.748, 0, 0, 0.171364, -161.227, 0.171364, 18.7731
8, 1800.00000, 245.292, -149.608, 0, 0, 0.170559, -161.087, 0.170559, 18.9133
8, 2100.00000, 242.229, -149.802, 0, 0, 0.172715, -161.281, 0.172715, 18.7194
8, 2400.00000, 239.719, -149.962, 0, 0, 0.174524, -161.44, 0.174524, 18.5601
8, 2700.00000, 243.108, -149.685, 0, 0, 0.172091, -161.164, 0.172091, 18.8364
8, 3000.00000, 245.079, -149.532, 0, 0, 0.170708, -161.01, 0.170708, 18.9898
8, 3300.00000, 246.163, -149.401, 0, 0, 0.169957, -160.88, 0.169957, 19.1203
9, 0.00000, 246.467, -149.332, 0, 0, 0.169746, -160.811, 0.169746, 19.1892
9, 300.00000, 246.485, -149.397, 0, 0, 0.169733, -160.875, 0.169733, 19.1251
9, 600.00000, 246.705, -149.522, 0, 0, 0.169582, -161, 0.169582, 18.9997
9, 900.00000, 246.631, -149.411, 0, 0, 0.364918, -160.89, 0.364918, 19.1104
9, 1200.00000, 246.05, -149.387, 0, 0, 0.659392, -160.865, 0.659392, 19.1348
9, 1500.00000, 246.822, -149.369, 0, 0, 0.657341, -160.847, 0.657341, 19.1527
9, 1800.00000, 245.753, -149.277, 0, 0, 0.66019, -160.756, 0.66019, 19.2445
9, 2100.00000, 246.318, -149.497, 0, 0, 0.267615, -160.975, 0.267615, 19.0248
9, 2400.00000, 246.716, -149.478, 0, 0, 0.169575, -160.956, 0.169575, 19.0437
9, 2700.00000, 246.773, -149.499, 0, 0, 0.169536, -160.977, 0.169536, 19.0228
9, 3000.00000, 246.751, -149.455, 0, 0, 0.169551, -160.934, 0.169551, 19.0662
9, 3300.00000, 247.92, -149.29, 0, 0, 0.168752, -160.769, 0.168752, 19.2315
10, 0.00000, 243.783, -149.607, 0, 0, 0.171614, -161.085, 0.171614, 18.9147
10, 300.00000, 246.074, -149.526, 0, 0, 0.170019, -161.005, 0.170019, 18.9955
10, 600.00000, 248.906, -149.263, 0, 0, 0.168087, -160.742, 0.168087, 19.2577
10, 900.00000, 247.879, -149.354, 0, 0, 0.168778, -160.832, 0.168778, 19.1683
10, 1200.00000, 245.851, -149.418, 0, 0, 0.17017, -160.897, 0.17017, 19.1033
10, 1500.00000, 244.356, -149.532, 0, 0, 0.171212, -161.01, 0.171212, 18.9902
10, 1800.00000, 249.729, -149.134, 0, 0, 0.167528, -160.612, 0.167528, 19.388
10, 2100.00000, 248.499, -149.188, 0, 0, 0.362169, -160.666, 0.362169, 19.3341
10, 2400.00000, 245.403, -149.519, 0, 0, 0.661129, -160.997, 0.661129, 19.0027
10, 2700.00000, 248.927, -149.175, 0, 0, 0.651801, -160.654, 0.651801, 19.3458
10, 3000.00000, 248.648, -149.253, 0, 0, 0.652506, -160.731, 0.652506, 19.2685
10, 3300.00000, 247.762, -149.305, 0, 0, 0.266054, -160.783, 0.266054, 19.2171
11, 0.00000, 249.304, -149.172, 0, 0, 0.167817, -160.651, 0.167817, 19.3489
11, 300.00000, 246.262, -149.458, 0, 0, 0.169885, -160.936, 0.169885, 19.0644
11, 600.00000, 241.275, -149.928, 0, 0, 0.173398, -161.406, 0.173398, 18.5938
11, 900.00000, 241.488, -150.019, 0, 0, 0.545936, -161.496, 0.545936, 18.5045
11, 1200.00000, 247.201, -149.441, 0, 0, 0.734785, -160.921, 0.734785, 19.0793
11, 1500.00000, 249.25, -149.244, 0, 0, 0.728735, -160.723, 0.728735, 19.2774
11, 1800.00000, 249.003, -149.155, 0, 0, 0.729437, -160.633, 0.729437, 19.3667
11, 2100.00000, 249.516, -149.133, 0, 0, 0.727945, -160.611, 0.727945, 19.3889
11, 2400.00000, 249.081, -149.146, 0, 0, 0.729259, -160.625, 0.729259, 19.3753
11, 2700.00000, 248.143, -149.206, 0, 0, 0.73196, -160.685, 0.73196, 19.3154
11, 3000.00000, 241.696, -149.793, 0, 0, 0.751491, -161.271, 0.751491, 18.7288
11, 3300.00000, 243.594, -149.633, 0, 0, 0.682805, -161.112, 0.682805, 18.8884
12, 0.00000, 244.795, -149.596, 0, 0, 0.679455, -161.074, 0.679455, 18.926
12, 300.00000, 242.72, -149.769, 0, 0, 0.68526, -161.247, 0.68526, 18.7531
12, 600.00000, 245.646, -149.52, 0, 0, 0.677108, -160.999, 0.677108, 19.0014
12, 900.00000, 247.239, -149.382, 0, 0, 0.672743, -160.86, 0.672743, 19.1396
12, 1200.00000, 243.076, -149.729, 0, 0, 0.684253, -161.207, 0.684253, 18.7929
12, 1500.00000, 242.501, -149.747, 0, 0, 0.786892, -161.226, 0.786892, 18.7741
12, 1800.00000, 242.396, -149.862, 0, 0, 0.68619, -161.339, 0.68619, 18.6614
12, 2100.00000, 243.556, -149.769, 0, 0, 0.682909, -161.248, 0.682909, 18.7522
12, 2400.00000, 245.492, -149.646, 0, 0, 0.677529, -161.125, 0.677529, 18.875
12, 2700.00000, 248.629, -149.235, 0, 0, 3.13895, -160.715, 3.13895, 19.2847
12, 3000.00000, 247.736, -149.296, 0, 0, 0.671382, -160.775, 0.671382, 19.2255
12, 3300.00000, 243.311, -149.823, 0, 0, 0.683592, -161.301, 0.683592, 18.6993
13, 0.00000, 242.376, -149.895, 0, 0, 0.686261, -161.373, 0.686261, 18.6267
13, 300.00000, 245.262, -149.565, 0, 0, 0.678166, -161.043, 0.678166, 18.9565
13, 600.00000, 249.551, -149.101, 0, 0, 0.6665, -160.579, 0.6665, 19.4208
13, 900.00000, 249.192, -149.168, 0, 0, 0.667461, -160.646, 0.667461, 19.3544
13, 1200.00000, 248.92, -149.182, 0, 0, 0.970727, -160.661, 0.970727, 19.3393
13, 1500.00000, 249.183, -149.19, 0, 0, 1.76496, -160.668, 1.76496, 19.3322
13, 1800.00000, 249.025, -149.192, 0, 0, 1.76613, -160.67, 1.76613, 19.3296
13, 2100.00000, 249.786, -149.004, 0, 0, 1.76071, -160.483, 1.76071, 19.5169
13, 2400.00000, 249.405, -149.103, 0, 0, 1.35014, -160.581, 1.35014, 19.4194
13, 2700.00000, 248.663, -149.161, 0, 0, 1.35417, -160.639, 1.35417, 19.3611
13, 3000.00000, 246.728, -149.381, 0, 0, 1.36479, -160.859, 1.36479, 19.1411
13, 3300.00000, 248.624, -149.248, 0, 0, 1.35441, -160.727, 1.35441, 19.2729
14, 0.00000, 248.657, -149.237, 0, 0, 1.3542, -160.716, 1.3542, 19.2844
14, 300.00000, 248.008, -149.231, 0, 0, 0.16869, -160.71, 0.16869, 19.2903
14, 600.00000, 248.312, -149.19, 0, 0, 0.168486, -160.668, 0.168486, 19.3319
14, 900.00000, 244.961, -149.348, 0, 0, 0.170787, -160.826, 0.170787, 19.1741
14, 1200.00000, 242.984, -149.46, 0, 0, 0.370394, -160.938, 0.370394, 19.0617
14, 1500.00000, 246.945, -149.306, 0, 0, 0.657027, -160.784, 0.657027, 19.2156
14, 1800.00000, 247.629, -149.304, 0, 0, 0.6552, -160.782, 0.6552, 19.2181
14, 2100.00000, 247.154, -149.346, 0, 0, 0.656453, -160.825, 0.656453, 19.1755
14, 2400.00000, 248.512, -149.332, 0, 0, 0.265256, -160.811, 0.265256, 19.1895
14, 2700.00000, 246.33, -149.4, 0, 0, 0.169838, -160.878, 0.169838, 19.1218
14, 3000.00000, 246.157, -149.412, 0, 0, 0.16996, -160.89, 0.16996, 19.1101
14, 3300.00000, 246.097, -149.475, 0, 0, 0.170001, -160.953, 0.170001, 19.0467
15, 0.00000, 247.075, -149.368, 0, 0, 0.169329, -160.846, 0.169329, 19.1535
15, 300.00000, 246.263, -149.295, 0, 0, 1.36737, -160.773, 1.36737, 19.2266
15, 600.00000, 241.793, -149.77, 0, 0, 0.822931, -161.249, 0.822931, 18.7515
15, 900.00000, 241.228, -149.888, 0, 0, 0.82487, -161.366, 0.82487, 18.6344
15, 1200.00000, 241.622, -149.885, 0, 0, 0.810842, -161.363, 0.810842, 18.6371
15, 1500.00000, 242.037, -149.847, 0, 0, 2.59696, -161.326, 2.59696, 18.6744
15, 1800.00000, 243.542, -149.6, 0, 0, 4.45803, -161.078, 4.45803, 18.9217
15, 2100.00000, 246.814, -149.306, 0, 0, 1.16011, -160.785, 1.16011, 19.2147
15, 2400.00000, 245.48, -149.489, 0, 0, 1.44656, -160.967, 1.44656, 19.0333
15, 2700.00000, 244.252, -149.66, 0, 0, 1.45383, -161.138, 1.45383, 18.8617
15, 3000.00000, 243.289, -149.732, 0, 0, 1.44533, -161.211, 1.44533, 18.7894
15, 3300.00000, 243.87, -149.731, 0, 0, 1.45611, -161.21, 1.45611, 18.7904
16, 0.00000, 245.838, -149.489, 0, 0, 1.44447, -160.968, 1.44447, 19.0318
16, 300.00000, 245.716, -149.528, 0, 0, 1.44517, -161.006, 1.44517, 18.9939
16, 600.00000, 243.11, -149.718, 0, 0, 1.46066, -161.196, 1.46066, 18.8041
16, 900.00000, 242.663, -149.656, 0, 0, 1.4634, -161.135, 1.4634, 18.8648
16, 1200.00000, 243.329, -149.627, 0, 0, 1.45928, -161.105, 1.45928, 18.8954
16, 1500.00000, 244.129, -149.558, 0, 0, 1.50473, -161.036, 1.50473, 18.9639
16, 1800.00000, 244.133, -149.544, 0, 0, 1.40439, -161.022, 1.40439, 18.9777
16, 2100.00000, 241.807, -149.875, 0, 0, 1.40524, -161.353, 1.40524, 18.6467
16, 2400.00000, 242.711, -149.673, 0, 0, 1.08553, -161.152, 1.08553, 18.8483
16, 2700.00000, 240.005, -149.896, 0, 0, 1.39878, -161.374, 1.39878, 18.626
16, 3000.00000, 240.478, -149.769, 0, 0, 1.35445, -161.246, 1.35445, 18.7535
16, 3300.00000, 242.375, -149.917, 0, 0, 1.31774, -161.395, 1.31774, 18.6046
17, 0.00000, 242.653, -150.01, 0, 0, 0.919253, -161.486, 0.919253, 18.5142
17, 300.00000, 242.386, -150.201, 0, 0, 0.777981, -161.68, 0.777981, 18.3205
17, 600.00000, 241.751, -150.106, 0, 0, 0.75132, -161.584, 0.75132, 18.4159
17, 900.00000, 240.556, -150.044, 0, 0, 0.444544, -161.524, 0.444544, 18.4763
17, 1200.00000, 239.479, -150.216, 0, 0, 0.238613, -161.694, 0.238613, 18.3056
17, 1500.00000, 239.398, -150.05, 0, 0, 0.238694, -161.529, 0.238694, 18.4713
17, 1800.00000, 239.482, -150.122, 0, 0, 0.23861, -161.6, 0.23861, 18.4
17, 2100.00000, 238.555, -150.071, 0, 0, 0.834062, -161.55, 0.834062, 18.4498
17, 2400.00000, 239.512, -150.237, 0, 0, 0.945803, -161.716, 0.945803, 18.2843
17, 2700.00000, 239.529, -150.181, 0, 0, 0.945732, -161.659, 0.945732, 18.3409
17, 3000.00000, 240.28, -150.115, 0, 0, 0.879086, -161.593, 0.879086, 18.4068
17, 3300.00000, 238.929, -150.064, 0, 0, 0.884045, -161.542, 0.884045, 18.4577
18, 0.00000, 240.022, -149.985, 0, 0, 1.48882, -161.463, 1.48882, 18.5374
18, 300.00000, 239.085, -149.998, 0, 0, 1.96748, -161.478, 1.96748, 18.5219
18, 600.00000, 239.019, -149.88, 0, 0, 2.05771, -161.358, 2.05771, 18.6416
18, 900.00000, 239.833, -149.774, 0, 0, 1.95033, -161.253, 1.95033, 18.7472
18, 1200.00000, 239.015, -149.814, 0, 0, 1.55397, -161.293, 1.55397, 18.7066
18, 1500.00000, 237.764, -149.966, 0, 0, 1.56217, -161.445, 1.56217, 18.5555
18, 1800.00000, 238.237, -149.921, 0, 0, 1.24557, -161.399, 1.24557, 18.6014
18, 2100.00000, 237.23, -150.091, 0, 0, 1.46073, -161.57, 1.46073, 18.4304
18, 2400.00000, 239.406, -149.998, 0, 0, 1.55146, -161.476, 1.55146, 18.5237
18, 2700.00000, 239.927, -150.065, 0, 0, 1.49536, -161.543, 1.49536, 18.4568
18, 3000.00000, 239.469, -149.981, 0, 0, 1.32947, -161.459, 1.32947, 18.5411
18, 3300.00000, 239.907, -149.973, 0, 0, 1.26753, -161.451, 1.26753, 18.5487
19, 0.00000, 240.154, -150.054, 0, 0, 1.49394, -161.532, 1.49394, 18.4677
19, 300.00000, 240.48, -150.048, 0, 0, 1.76094, -161.527, 1.76094, 18.4734
19, 600.00000, 240.178, -150.156, 0, 0, 1.77589, -161.633, 1.77589, 18.3672
19, 900.00000, 239.7, -150.278, 0, 0, 1.83052, -161.756, 1.83052, 18.2436
19, 1200.00000, 240.259, -150.279, 0, 0, 1.82628, -161.757, 1.82628, 18.2431
19, 1500.00000, 239.075, -150.099, 0, 0, 2.33894, -161.577, 2.33894, 18.423
19, 1800.00000, 237.602, -150.137, 0, 0, 2.35344, -161.616, 2.35344, 18.3845
19, 2100.00000, 235.008, -149.91, 0, 0, 25.5516, -161.389, 25.5516, 18.6112
19, 2400.00000, 238.859, -149.967, 0, 0, 1.13551, -161.445, 1.13551, 18.5551
19, 2700.00000, 239.832, -149.989, 0, 0, 1.05942, -161.468, 1.05942, 18.5322
19, 3000.00000, 239.565, -150.146, 0, 0, 1.40561, -161.624, 1.40561, 18.3756
19, 3300.00000, 239.806, -150.218, 0, 0, 0.829753, -161.696, 0.829753, 18.3035
20, 0.00000, 239.521, -150.185, 0, 0, 0.830725, -161.664, 0.830725, 18.3361
20, 300.00000, 239.717, -150.08, 0, 0, 0.830081, -161.559, 0.830081, 18.4414
20, 600.00000, 239.825, -150.074, 0, 0, 0.802458, -161.553, 0.802458, 18.4472
20, 900.00000, 239.862, -150.058, 0, 0, 0.798932, -161.537, 0.798932, 18.4635
20, 1200.00000, 239.159, -150.248, 0, 0, 1.12981, -161.727, 1.12981, 18.2734
20, 1500.00000, 239.132, -150.217, 0, 0, 1.01898, -161.696, 1.01898, 18.3039
20, 1800.00000, 239.181, -150.269, 0, 0, 0.81059, -161.747, 0.81059, 18.2526
20, 2100.00000, 239.078, -150.184, 0, 0, 1.40847, -161.663, 1.40847, 18.3372
20, 2400.00000, 238.831, -150.239, 0, 0, 1.16211, -161.717, 1.16211, 18.2832
20, 2700.00000, 238.509, -150.191, 0, 0, 1.31768, -161.67, 1.31768, 18.3298
20, 3000.00000, 239.234, -150.263, 0, 0, 1.4195, -161.741, 1.4195, 18.2587
20, 3300.00000, 239.36, -150.322, 0, 0, 1.70949, -161.801, 1.70949, 18.1993
21, 0.00000, 238.738, -150.345, 0, 0, 2.20115, -161.822, 2.20115, 18.1775
21, 300.00000, 237.374, -150.316, 0, 0, 2.38149, -161.794, 2.38149, 18.206
21, 600.00000, 238.427, -150.438, 0, 0, 2.14845, -161.916, 2.14845, 18.0836
21, 900.00000, 238.076, -150.327, 0, 0, 1.99216, -161.806, 1.99216, 18.1943
21, 1200.00000, 237.533, -150.433, 0, 0, 2.62906, -161.911, 2.62906, 18.0886
