hour, t(sec), V1, VAngle1, V2, VAngle2, I1, IAngle1, I2, IAngle2
0, 300.00000, 239.929, -29.9807, 0, 0, 0.208395, -41.459, 0.208395, 138.541
0, 600.00000, 240.051, -30.0269, 0, 0, 0.20829, -41.505, 0.20829, 138.495
0, 900.00000, 240.14, -30.0025, 0, 0, 0.208213, -41.481, 0.208213, 138.519
0, 1200.00000, 240.053, -29.9952, 0, 0, 0.208287, -41.4736, 0.208287, 138.526
0, 1500.00000, 239.85, -29.9937, 0, 0, 0.208463, -41.472, 0.208463, 138.528
0, 1800.00000, 239.767, -29.9859, 0, 0, 0.208536, -41.4643, 0.208536, 138.536
0, 2100.00000, 239.776, -30.0054, 0, 0, 0.208528, -41.4837, 0.208528, 138.516
0, 2400.00000, 239.772, -30.0124, 0, 0, 0.208532, -41.4908, 0.208532, 138.509
0, 2700.00000, 239.567, -29.9863, 0, 0, 0.208709, -41.4648, 0.208709, 138.535
0, 3000.00000, 239.746, -30.014, 0, 0, 0.208555, -41.4921, 0.208555, 138.508
0, 3300.00000, 239.764, -29.9946, 0, 0, 0.208538, -41.4731, 0.208538, 138.527
1, 0.00000, 239.872, -29.9975, 0, 0, 0.208445, -41.4759, 0.208445, 138.524
1, 300.00000, 239.956, -29.9719, 0, 0, 0.208372, -41.4504, 0.208372, 138.55
1, 600.00000, 239.934, -29.9901, 0, 0, 0.20839, -41.4683, 0.20839, 138.532
1, 900.00000, 239.833, -29.9898, 0, 0, 0.208478, -41.4682, 0.208478, 138.532
1, 1200.00000, 240.42, -29.8453, 0, 0, 0.370102, -41.3237, 0.370102, 138.676
1, 1500.00000, 239.743, -29.9866, 0, 0, 1.02147, -41.4639, 1.02147, 138.536
1, 1800.00000, 239.675, -29.9752, 0, 0, 1.02179, -41.4536, 1.02179, 138.546
1, 2100.00000, 239.596, -29.9639, 0, 0, 1.02213, -41.4423, 1.02213, 138.558
1, 2400.00000, 239.53, -29.9498, 0, 0, 1.02241, -41.4282, 1.02241, 138.572
1, 2700.00000, 239.637, -29.9438, 0, 0, 0.37131, -41.4222, 0.37131, 138.578
1, 3000.00000, 239.707, -29.9435, 0, 0, 0.208589, -41.4218, 0.208589, 138.578
1, 3300.00000, 239.681, -29.9316, 0, 0, 0.208611, -41.4099, 0.208611, 138.59
2, 0.00000, 239.64, -29.9448, 0, 0, 0.208645, -41.423, 0.208645, 138.577
2, 300.00000, 239.614, -29.9879, 0, 0, 0.208669, -41.4661, 0.208669, 138.534
2, 600.00000, 239.762, -29.9879, 0, 0, 0.208541, -41.4663, 0.208541, 138.534
2, 900.00000, 239.743, -29.9818, 0, 0, 0.208557, -41.4602, 0.208557, 138.54
2, 1200.00000, 239.705, -29.9833, 0, 0, 0.208589, -41.4617, 0.208589, 138.538
2, 1500.00000, 239.779, -29.985, 0, 0, 0.208526, -41.4633, 0.208526, 138.537
2, 1800.00000, 239.874, -30.0558, 0, 0, 0.208444, -41.5336, 0.208444, 138.466
2, 2100.00000, 239.667, -29.9878, 0, 0, 0.208622, -41.4663, 0.208622, 138.534
2, 2400.00000, 239.675, -29.9888, 0, 0, 0.208616, -41.4672, 0.208616, 138.533
2, 2700.00000, 239.796, -29.9785, 0, 0, 0.208511, -41.4569, 0.208511, 138.543
2, 3000.00000, 239.571, -29.9734, 0, 0, 0.859527, -41.4518, 0.859527, 138.548
2, 3300.00000, 239.42, -29.9586, 0, 0, 1.02288, -41.437, 1.02288, 138.563
3, 0.00000, 239.402, -29.9568, 0, 0, 1.02296, -41.4352, 1.02296, 138.565
3, 300.00000, 239.36, -29.9788, 0, 0, 1.02313, -41.4571, 1.02313, 138.543
3, 600.00000, 239.35, -29.9821, 0, 0, 0.697467, -41.4604, 0.697467, 138.54
3, 900.00000, 239.639, -29.9845, 0, 0, 0.208649, -41.4629, 0.208649, 138.537
3, 1200.00000, 239.807, -29.9942, 0, 0, 0.208501, -41.4725, 0.208501, 138.527
3, 1500.00000, 239.838, -29.9822, 0, 0, 0.208475, -41.4606, 0.208475, 138.539
3, 1800.00000, 239.663, -29.989, 0, 0, 0.208625, -41.4673, 0.208625, 138.533
3, 2100.00000, 239.555, -30.0101, 0, 0, 0.208719, -41.4884, 0.208719, 138.512
3, 2400.00000, 239.561, -29.998, 0, 0, 0.208715, -41.4764, 0.208715, 138.524
3, 2700.00000, 239.634, -29.9913, 0, 0, 0.208651, -41.4697, 0.208651, 138.53
3, 3000.00000, 239.77, -29.9906, 0, 0, 0.208534, -41.4689, 0.208534, 138.531
3, 3300.00000, 239.748, -29.9814, 0, 0, 0.208553, -41.4598, 0.208553, 138.54
4, 0.00000, 239.763, -29.982, 0, 0, 0.208539, -41.4603, 0.208539, 138.54
4, 300.00000, 239.521, -29.9946, 0, 0, 0.208748, -41.473, 0.208748, 138.527
4, 600.00000, 239.473, -29.9858, 0, 0, 0.208791, -41.4642, 0.208791, 138.536
4, 900.00000, 239.58, -29.989, 0, 0, 0.208699, -41.4674, 0.208699, 138.533
4, 1200.00000, 239.609, -29.979, 0, 0, 0.208673, -41.4574, 0.208673, 138.543
4, 1500.00000, 239.775, -29.9803, 0, 0, 0.371098, -41.4586, 0.371098, 138.541
4, 1800.00000, 239.77, -29.9728, 0, 0, 1.02139, -41.4511, 1.02139, 138.549
4, 2100.00000, 239.697, -29.9674, 0, 0, 1.0217, -41.4457, 1.0217, 138.554
4, 2400.00000, 239.901, -29.955, 0, 0, 1.02083, -41.4333, 1.02083, 138.567
4, 2700.00000, 239.986, -29.9511, 0, 0, 1.02047, -41.4295, 1.02047, 138.571
4, 3000.00000, 239.979, -29.9599, 0, 0, 0.37078, -41.4382, 0.37078, 138.562
4, 3300.00000, 240.148, -29.9671, 0, 0, 0.208205, -41.4453, 0.208205, 138.555
5, 0.00000, 240.202, -29.958, 0, 0, 0.208158, -41.4364, 0.208158, 138.564
5, 300.00000, 240.1, -29.9713, 0, 0, 0.208246, -41.4496, 0.208246, 138.55
5, 600.00000, 240.272, -29.9694, 0, 0, 0.208098, -41.4477, 0.208098, 138.552
5, 900.00000, 240.371, -29.9646, 0, 0, 0.208012, -41.4429, 0.208012, 138.557
5, 1200.00000, 240.418, -29.9785, 0, 0, 0.207971, -41.4567, 0.207971, 138.543
5, 1500.00000, 240.557, -29.9804, 0, 0, 0.207851, -41.4587, 0.207851, 138.541
5, 1800.00000, 240.71, -29.9681, 0, 0, 0.207719, -41.4465, 0.207719, 138.554
5, 2100.00000, 241.207, -29.9568, 0, 0, 0.20729, -41.4351, 0.20729, 138.565
5, 2400.00000, 241.287, -29.9412, 0, 0, 0.36877, -41.4197, 0.36877, 138.58
5, 2700.00000, 240.614, -29.9408, 0, 0, 1.0178, -41.4193, 1.0178, 138.581
5, 3000.00000, 240.908, -29.9719, 0, 0, 1.01656, -41.4498, 1.01656, 138.55
5, 3300.00000, 240.815, -29.9142, 0, 0, 1.01695, -41.3929, 1.01695, 138.607
6, 0.00000, 240.148, -29.9118, 0, 0, 1.01976, -41.3908, 1.01976, 138.609
6, 300.00000, 240.95, -29.9237, 0, 0, 0.369285, -41.402, 0.369285, 138.598
6, 600.00000, 240.895, -29.8722, 0, 0, 0.207557, -41.3509, 0.207557, 138.649
6, 900.00000, 242.932, -29.8365, 0, 0, 0.205819, -41.3148, 0.205819, 138.685
6, 1200.00000, 243.018, -29.8848, 0, 0, 0.205743, -41.3615, 0.205743, 138.638
6, 1500.00000, 243.529, -29.9066, 0, 0, 0.205307, -41.3838, 0.205307, 138.616
6, 1800.00000, 243.905, -29.9889, 0, 0, 0.204995, -41.4658, 0.204995, 138.534
6, 2100.00000, 242.437, -30.0254, 0, 0, 0.20625, -41.5043, 0.20625, 138.496
6, 2400.00000, 241.914, -30.0389, 0, 0, 0.206688, -41.5185, 0.206688, 138.481
6, 2700.00000, 242.387, -29.999, 0, 0, 0.206281, -41.4788, 0.206281, 138.521
6, 3000.00000, 241.212, -29.8823, 0, 0, 0.85369, -41.3623, 0.85369, 138.638
6, 3300.00000, 240.127, -29.9174, 0, 0, 1.01986, -41.3962, 1.01986, 138.604
7, 0.00000, 242.265, -29.8405, 0, 0, 1.01079, -41.3169, 1.01079, 138.683
7, 300.00000, 243.214, -29.8211, 0, 0, 1.00688, -41.2989, 1.00688, 138.701
7, 600.00000, 242.003, -29.7512, 0, 0, 0.689838, -41.2315, 0.689838, 138.768
7, 900.00000, 243.546, -29.8163, 0, 0, 0.2053, -41.2945, 0.2053, 138.706
7, 1200.00000, 244.833, -29.6791, 0, 0, 0.204222, -41.1575, 0.204222, 138.842
7, 1500.00000, 245.364, -29.872, 0, 0, 0.203779, -41.3501, 0.203779, 138.65
7, 1800.00000, 246.078, -29.8999, 0, 0, 0.203188, -41.3781, 0.203188, 138.622
7, 2100.00000, 247.04, -29.889, 0, 0, 0.202398, -41.3673, 0.202398, 138.633
7, 2400.00000, 247.319, -30.0629, 0, 0, 0.202167, -41.5408, 0.202167, 138.459
7, 2700.00000, 244.615, -29.9744, 0, 0, 0.204402, -41.453, 0.204402, 138.547
7, 3000.00000, 238.06, -29.8536, 0, 0, 0.21003, -41.3321, 0.21003, 138.668
7, 3300.00000, 243.592, -29.6647, 0, 0, 0.205263, -41.1429, 0.205263, 138.857
8, 0.00000, 246.898, -29.7321, 0, 0, 0.202517, -41.2101, 0.202517, 138.79
8, 300.00000, 247.689, -29.9645, 0, 0, 0.393023, -41.4424, 0.393023, 138.558
8, 600.00000, 247.882, -29.7591, 0, 0, 0.679225, -41.2378, 0.679225, 138.762
8, 900.00000, 245.859, -29.6609, 0, 0, 1.16044, -41.1395, 1.16044, 138.86
8, 1200.00000, 242.608, -29.6376, 0, 0, 1.49732, -41.1161, 1.49732, 138.884
8, 1500.00000, 244.11, -29.7092, 0, 0, 1.48813, -41.1874, 1.48813, 138.813
8, 1800.00000, 246.343, -29.6473, 0, 0, 1.47464, -41.1256, 1.47464, 138.874
8, 2100.00000, 242.209, -29.8821, 0, 0, 1.33886, -41.3604, 1.33886, 138.64
8, 2400.00000, 239.499, -29.9351, 0, 0, 0.702998, -41.4134, 0.702998, 138.587
8, 2700.00000, 245.015, -29.6776, 0, 0, 0.204071, -41.156, 0.204071, 138.844
8, 3000.00000, 248.15, -29.5565, 0, 0, 0.201493, -41.035, 0.201493, 138.965
8, 3300.00000, 249.901, -29.6774, 0, 0, 0.200082, -41.1553, 0.200082, 138.845
9, 0.00000, 250.095, -29.7546, 0, 0, 0.199924, -41.2327, 0.199924, 138.767
9, 300.00000, 249.881, -29.6994, 0, 0, 0.200094, -41.1779, 0.200094, 138.822
9, 600.00000, 248.423, -29.6354, 0, 0, 0.201267, -41.114, 0.201267, 138.886
9, 900.00000, 249.709, -29.6802, 0, 0, 0.200236, -41.1583, 0.200236, 138.842
9, 1200.00000, 250.539, -29.5816, 0, 0, 0.199572, -41.0603, 0.199572, 138.94
9, 1500.00000, 249.97, -29.6836, 0, 0, 0.823766, -41.1615, 0.823766, 138.839
9, 1800.00000, 250.687, -29.8052, 0, 0, 0.976918, -41.2832, 0.976918, 138.717
9, 2100.00000, 249.197, -29.444, 0, 0, 0.982729, -40.9232, 0.982729, 139.077
9, 2400.00000, 248.544, -29.5255, 0, 0, 0.985327, -41.0037, 0.985327, 138.996
9, 2700.00000, 248.202, -29.5675, 0, 0, 0.672591, -41.0459, 0.672591, 138.954
9, 3000.00000, 248.085, -29.6926, 0, 0, 0.201544, -41.1707, 0.201544, 138.829
9, 3300.00000, 250.432, -29.6619, 0, 0, 0.199659, -41.14, 0.199659, 138.86
10, 0.00000, 245.207, -29.8099, 0, 0, 0.203908, -41.2884, 0.203908, 138.712
10, 300.00000, 246.921, -29.7694, 0, 0, 0.202494, -41.2476, 0.202494, 138.752
10, 600.00000, 250.936, -29.7195, 0, 0, 0.199259, -41.1973, 0.199259, 138.803
10, 900.00000, 249.208, -29.7801, 0, 0, 0.200634, -41.2585, 0.200634, 138.742
10, 1200.00000, 246.571, -30.0964, 0, 0, 0.202781, -41.5744, 0.202781, 138.426
10, 1500.00000, 244.662, -30.1804, 0, 0, 0.204364, -41.6587, 0.204364, 138.341
10, 1800.00000, 252.088, -29.9165, 0, 0, 0.35297, -41.3949, 0.35297, 138.605
10, 2100.00000, 251.379, -29.8842, 0, 0, 0.974225, -41.3627, 0.974225, 138.637
10, 2400.00000, 246.922, -29.8624, 0, 0, 0.99179, -41.3411, 0.99179, 138.659
10, 2700.00000, 252.809, -29.674, 0, 0, 0.968765, -41.1522, 0.968765, 138.848
10, 3000.00000, 251.732, -29.7404, 0, 0, 0.972839, -41.2187, 0.972839, 138.781
10, 3300.00000, 250.805, -29.7591, 0, 0, 0.354775, -41.2375, 0.354775, 138.762
11, 0.00000, 253.008, -29.6956, 0, 0, 0.197626, -41.1739, 0.197626, 138.826
11, 300.00000, 248.46, -29.7943, 0, 0, 0.201236, -41.2728, 0.201236, 138.727
11, 600.00000, 240.968, -29.9043, 0, 0, 0.207497, -41.3827, 0.207497, 138.617
11, 900.00000, 239.978, -29.8906, 0, 0, 0.208347, -41.3698, 0.208347, 138.63
11, 1200.00000, 248.994, -29.7414, 0, 0, 0.200817, -41.2191, 0.200817, 138.781
11, 1500.00000, 252.017, -29.7307, 0, 0, 0.198404, -41.2085, 0.198404, 138.792
11, 1800.00000, 253.142, -29.7199, 0, 0, 0.197523, -41.1981, 0.197523, 138.802
11, 2100.00000, 253.474, -29.7345, 0, 0, 0.197259, -41.2127, 0.197259, 138.787
11, 2400.00000, 253.216, -29.7139, 0, 0, 0.967184, -41.1927, 0.967184, 138.807
11, 2700.00000, 251.762, -29.732, 0, 0, 0.972727, -41.2105, 0.972727, 138.79
11, 3000.00000, 242.537, -29.9462, 0, 0, 1.00973, -41.4246, 1.00973, 138.575
11, 3300.00000, 245.119, -29.8925, 0, 0, 0.999101, -41.3707, 0.999101, 138.629
12, 0.00000, 246.898, -29.7219, 0, 0, 0.518269, -41.2004, 0.518269, 138.8
12, 300.00000, 243.649, -29.8311, 0, 0, 0.205213, -41.3094, 0.205213, 138.691
12, 600.00000, 247.719, -29.735, 0, 0, 0.201844, -41.2131, 0.201844, 138.787
12, 900.00000, 249.679, -29.6685, 0, 0, 0.674342, -41.1467, 0.674342, 138.853
12, 1200.00000, 243.649, -29.8231, 0, 0, 0.691021, -41.3015, 0.691021, 138.698
12, 1500.00000, 243.633, -29.704, 0, 0, 0.691059, -41.1829, 0.691059, 138.817
12, 1800.00000, 242.321, -29.7245, 0, 0, 0.694837, -41.2044, 0.694837, 138.796
12, 2100.00000, 244.061, -29.6858, 0, 0, 0.689858, -41.1641, 0.689858, 138.836
12, 2400.00000, 245.888, -29.6937, 0, 0, 0.684732, -41.1718, 0.684732, 138.828
12, 2700.00000, 252.433, -29.6259, 0, 0, 1.07937, -41.1035, 1.07937, 138.896
12, 3000.00000, 251.063, -29.7047, 0, 0, 1.86146, -41.1829, 1.86146, 138.817
12, 3300.00000, 242.879, -29.8433, 0, 0, 1.92419, -41.3218, 1.92419, 138.678
13, 0.00000, 241.683, -29.8615, 0, 0, 1.97091, -41.3402, 1.97091, 138.66
13, 300.00000, 247.067, -29.7377, 0, 0, 1.93705, -41.2159, 1.93705, 138.784
13, 600.00000, 254.445, -29.6067, 0, 0, 1.42126, -41.0851, 1.42126, 138.915
13, 900.00000, 253.367, -29.6337, 0, 0, 1.1196, -41.112, 1.1196, 138.888
13, 1200.00000, 252.441, -29.7332, 0, 0, 1.60715, -41.2111, 1.60715, 138.789
13, 1500.00000, 252.293, -29.7647, 0, 0, 1.88474, -41.243, 1.88474, 138.757
13, 1800.00000, 252.004, -29.8021, 0, 0, 1.88702, -41.2792, 1.88702, 138.721
13, 2100.00000, 254.006, -29.8763, 0, 0, 1.75963, -41.3538, 1.75963, 138.646
13, 2400.00000, 253.521, -29.7546, 0, 0, 1.6478, -41.2337, 1.6478, 138.766
13, 2700.00000, 252.781, -29.7494, 0, 0, 1.27156, -41.2279, 1.27156, 138.772
13, 3000.00000, 249.298, -29.8185, 0, 0, 1.28931, -41.297, 1.28931, 138.703
13, 3300.00000, 252.129, -29.6797, 0, 0, 1.27488, -41.1582, 1.27488, 138.842
14, 0.00000, 252.241, -29.6917, 0, 0, 1.23866, -41.1694, 1.23866, 138.831
14, 300.00000, 252.204, -29.6861, 0, 0, 1.2405, -41.1645, 1.2405, 138.836
14, 600.00000, 252.617, -29.7213, 0, 0, 1.28048, -41.1994, 1.28048, 138.801
14, 900.00000, 250.352, -29.6507, 0, 0, 0.959458, -41.1293, 0.959458, 138.871
14, 1200.00000, 248.748, -29.6091, 0, 0, 0.881961, -41.0875, 0.881961, 138.913
14, 1500.00000, 251.69, -29.5215, 0, 0, 0.871664, -40.9999, 0.871664, 139
14, 1800.00000, 251.612, -29.5788, 0, 0, 0.844346, -41.0569, 0.844346, 138.943
14, 2100.00000, 250.134, -29.7037, 0, 0, 1.20587, -41.1817, 1.20587, 138.818
14, 2400.00000, 250.841, -29.6582, 0, 0, 1.51327, -41.1367, 1.51327, 138.863
14, 2700.00000, 249.291, -29.7537, 0, 0, 0.982382, -41.232, 0.982382, 138.768
14, 3000.00000, 248.072, -29.855, 0, 0, 0.9872, -41.3332, 0.9872, 138.667
14, 3300.00000, 246.606, -29.9722, 0, 0, 0.835003, -41.4505, 0.835003, 138.55
15, 0.00000, 248.616, -29.8855, 0, 0, 0.201115, -41.3638, 0.201115, 138.636
15, 300.00000, 249.544, -29.8465, 0, 0, 0.200368, -41.3248, 0.200368, 138.675
15, 600.00000, 242.807, -29.8451, 0, 0, 0.205924, -41.3235, 0.205924, 138.676
15, 900.00000, 241.557, -29.7932, 0, 0, 0.206995, -41.2727, 0.206995, 138.727
15, 1200.00000, 241.256, -29.8827, 0, 0, 0.20725, -41.3607, 0.20725, 138.639
15, 1500.00000, 242.026, -29.8762, 0, 0, 0.206586, -41.3546, 0.206586, 138.645
15, 1800.00000, 246.021, -29.8115, 0, 0, 0.203236, -41.2898, 0.203236, 138.71
15, 2100.00000, 249.519, -29.8966, 0, 0, 0.200389, -41.3744, 0.200389, 138.626
15, 2400.00000, 246.829, -29.9205, 0, 0, 0.202568, -41.399, 0.202568, 138.601
15, 2700.00000, 244.177, -29.9766, 0, 0, 0.204769, -41.455, 0.204769, 138.545
15, 3000.00000, 243.537, -29.8521, 0, 0, 0.205308, -41.3305, 0.205308, 138.669
15, 3300.00000, 244.581, -29.7292, 0, 0, 0.204431, -41.2076, 0.204431, 138.792
16, 0.00000, 248.71, -29.592, 0, 0, 0.201042, -41.0704, 0.201042, 138.93
16, 300.00000, 247.704, -29.6598, 0, 0, 0.201852, -41.1381, 0.201852, 138.862
16, 600.00000, 244.649, -29.6522, 0, 0, 0.363702, -41.1306, 0.363702, 138.869
16, 900.00000, 244.372, -29.7587, 0, 0, 1.00216, -41.2352, 1.00216, 138.765
16, 1200.00000, 244.608, -29.7818, 0, 0, 1.00118, -41.2602, 1.00118, 138.74
16, 1500.00000, 245.154, -29.7641, 0, 0, 0.998956, -41.2424, 0.998956, 138.758
16, 1800.00000, 245.44, -29.7478, 0, 0, 0.997777, -41.2262, 0.997777, 138.774
16, 2100.00000, 241.273, -29.7164, 0, 0, 0.368792, -41.1948, 0.368792, 138.805
16, 2400.00000, 244.693, -29.5888, 0, 0, 0.204339, -41.0671, 0.204339, 138.933
16, 2700.00000, 242.324, -29.5737, 0, 0, 0.206336, -41.0522, 0.206336, 138.948
16, 3000.00000, 243.619, -29.6206, 0, 0, 0.205224, -41.0975, 0.205224, 138.903
16, 3300.00000, 239.822, -29.8809, 0, 0, 0.208487, -41.3592, 0.208487, 138.641
17, 0.00000, 238.03, -29.9367, 0, 0, 0.210044, -41.4179, 0.210044, 138.582
17, 300.00000, 235.653, -29.9136, 0, 0, 0.212175, -41.392, 0.212175, 138.608
17, 600.00000, 237.352, -29.9823, 0, 0, 0.210658, -41.4606, 0.210658, 138.539
17, 900.00000, 238.312, -29.9926, 0, 0, 0.571221, -41.47, 0.571221, 138.53
17, 1200.00000, 236.815, -29.8119, 0, 0, 0.314547, -41.2902, 0.314547, 138.71
17, 1500.00000, 237.976, -29.9066, 0, 0, 0.313014, -41.3849, 0.313014, 138.615
17, 1800.00000, 237.41, -29.8884, 0, 0, 0.313749, -41.367, 0.313749, 138.633
17, 2100.00000, 238.483, -29.7812, 0, 0, 0.399659, -41.2593, 0.399659, 138.741
17, 2400.00000, 236.146, -29.8287, 0, 0, 5.10663, -41.307, 5.10663, 138.693
17, 2700.00000, 237.648, -29.781, 0, 0, 1.07946, -41.2593, 1.07946, 138.741
17, 3000.00000, 237.877, -29.8684, 0, 0, 1.36155, -41.3468, 1.36155, 138.653
17, 3300.00000, 239.246, -29.6901, 0, 0, 1.02363, -41.1684, 1.02363, 138.832
18, 0.00000, 239.4, -29.7946, 0, 0, 1.02296, -41.2722, 1.02296, 138.728
18, 300.00000, 240.417, -29.6001, 0, 0, 1.01866, -41.0785, 1.01866, 138.921
18, 600.00000, 241.843, -29.6623, 0, 0, 0.206743, -41.14, 0.206743, 138.86
18, 900.00000, 243.644, -29.4696, 0, 0, 0.749672, -40.948, 0.749672, 139.052
18, 1200.00000, 243.457, -29.4516, 0, 0, 0.750278, -40.9311, 0.750278, 139.069
18, 1500.00000, 240.784, -29.5459, 0, 0, 0.758576, -41.0243, 0.758576, 138.976
18, 1800.00000, 240.83, -29.6632, 0, 0, 0.758423, -41.1409, 0.758423, 138.859
18, 2100.00000, 238.275, -29.5773, 0, 0, 0.766564, -41.0557, 0.766564, 138.944
18, 2400.00000, 237.311, -29.9899, 0, 0, 0.722378, -41.4682, 0.722378, 138.532
18, 2700.00000, 235.948, -30.0164, 0, 0, 0.755093, -41.4948, 0.755093, 138.505
18, 3000.00000, 237.268, -29.9487, 0, 0, 0.76982, -41.4271, 0.76982, 138.573
18, 3300.00000, 236.66, -30.0141, 0, 0, 0.211263, -41.4929, 0.211263, 138.507
19, 0.00000, 235.845, -30.0086, 0, 0, 0.212003, -41.487, 0.212003, 138.513
19, 300.00000, 236.518, -30.0393, 0, 0, 0.211411, -41.5178, 0.211411, 138.482
19, 600.00000, 235.846, -29.9508, 0, 0, 0.211988, -41.4287, 0.211988, 138.571
19, 900.00000, 234.217, -29.9131, 0, 0, 0.213475, -41.3915, 0.213475, 138.609
19, 1200.00000, 233.934, -30.0148, 0, 0, 0.213728, -41.4951, 0.213728, 138.505
19, 1500.00000, 236.748, -30.0057, 0, 0, 0.211197, -41.484, 0.211197, 138.516
19, 1800.00000, 237.693, -29.6988, 0, 0, 0.210357, -41.1773, 0.210357, 138.823
19, 2100.00000, 239.859, -29.7168, 0, 0, 0.208457, -41.1952, 0.208457, 138.805
19, 2400.00000, 237.719, -30.0626, 0, 0, 0.210332, -41.5408, 0.210332, 138.459
19, 2700.00000, 236.555, -30.2746, 0, 0, 0.870488, -41.7529, 0.870488, 138.247
19, 3000.00000, 235.692, -30.0456, 0, 0, 1.03906, -41.524, 1.03906, 138.476
19, 3300.00000, 235.03, -30.0696, 0, 0, 1.04198, -41.5479, 1.04198, 138.452
20, 0.00000, 236.105, -30.0111, 0, 0, 1.03732, -41.489, 1.03732, 138.511
20, 300.00000, 236.485, -30.1145, 0, 0, 0.705911, -41.5926, 0.705911, 138.407
20, 600.00000, 236.617, -30.1251, 0, 0, 0.211315, -41.6035, 0.211315, 138.396
20, 900.00000, 236.632, -30.1347, 0, 0, 0.211303, -41.613, 0.211303, 138.387
20, 1200.00000, 235.191, -29.8392, 0, 0, 0.212592, -41.3177, 0.212592, 138.682
20, 1500.00000, 235.71, -29.8599, 0, 0, 0.212136, -41.3383, 0.212136, 138.662
20, 1800.00000, 235.185, -29.8679, 0, 0, 0.212598, -41.3463, 0.212598, 138.654
20, 2100.00000, 236.813, -29.9897, 0, 0, 0.211138, -41.468, 0.211138, 138.532
20, 2400.00000, 236.283, -29.8979, 0, 0, 0.2116, -41.3759, 0.2116, 138.624
20, 2700.00000, 236.631, -29.8977, 0, 0, 0.771932, -41.3762, 0.771932, 138.624
20, 3000.00000, 235.55, -29.9379, 0, 0, 0.827413, -41.4162, 0.827413, 138.584
20, 3300.00000, 234.633, -29.9594, 0, 0, 0.788897, -41.4377, 0.788897, 138.562
21, 0.00000, 234.076, -29.8828, 0, 0, 1.39053, -41.3606, 1.39053, 138.639
21, 300.00000, 235.097, -29.7091, 0, 0, 2.3525, -41.1875, 2.3525, 138.812
21, 600.00000, 232.984, -29.7971, 0, 0, 2.33172, -41.2753, 2.33172, 138.725
21, 900.00000, 234.212, -29.8027, 0, 0, 2.46159, -41.281, 2.46159, 138.719
