hour, t(sec), V1, VAngle1, V2, VAngle2, I1, IAngle1, I2, IAngle2
0, 300.00000, 239.665, -150.002, 0, 0, 0.651421, -161.481, 0.651421, 18.5192
0, 600.00000, 239.609, -149.953, 0, 0, 1.13535, -161.432, 1.13535, 18.5684
0, 900.00000, 239.348, -149.957, 0, 0, 1.53903, -161.436, 1.53903, 18.5645
0, 1200.00000, 239.39, -149.968, 0, 0, 1.38533, -161.446, 1.38533, 18.5539
0, 1500.00000, 239.443, -149.985, 0, 0, 1.81118, -161.463, 1.81118, 18.5372
0, 1800.00000, 239.365, -149.997, 0, 0, 1.99678, -161.475, 1.99678, 18.5249
0, 2100.00000, 239.358, -149.976, 0, 0, 2.80512, -161.454, 2.80512, 18.5459
0, 2400.00000, 239.197, -149.955, 0, 0, 3.13974, -161.434, 3.13974, 18.5661
0, 2700.00000, 239.201, -150.01, 0, 0, 4.22325, -161.488, 4.22325, 18.5118
0, 3000.00000, 239.282, -149.958, 0, 0, 3.97024, -161.436, 3.97024, 18.5638
0, 3300.00000, 239.24, -149.975, 0, 0, 3.54863, -161.454, 3.54863, 18.5463
1, 0.00000, 239.174, -149.975, 0, 0, 3.49843, -161.453, 3.49843, 18.5471
1, 300.00000, 239.029, -149.992, 0, 0, 3.56884, -161.47, 3.56884, 18.5302
1, 600.00000, 239.222, -149.986, 0, 0, 2.91338, -161.465, 2.91338, 18.5354
1, 900.00000, 239.246, -149.997, 0, 0, 2.58892, -161.475, 2.58892, 18.5249
1, 1200.00000, 235.458, -149.932, 0, 0, 25.671, -161.41, 25.671, 18.5896
1, 1500.00000, 239.275, -149.989, 0, 0, 3.10575, -161.467, 3.10575, 18.5332
1, 1800.00000, 239.209, -150.004, 0, 0, 3.58665, -161.483, 3.58665, 18.5173
1, 2100.00000, 239.078, -150.011, 0, 0, 3.92663, -161.49, 3.92663, 18.5102
1, 2400.00000, 238.956, -150.021, 0, 0, 3.47599, -161.5, 3.47599, 18.5003
1, 2700.00000, 238.828, -150.02, 0, 0, 3.61458, -161.498, 3.61458, 18.502
1, 3000.00000, 238.688, -150.007, 0, 0, 4.42897, -161.486, 4.42897, 18.5142
1, 3300.00000, 238.73, -150.019, 0, 0, 3.98367, -161.497, 3.98367, 18.5029
2, 0.00000, 239.03, -150.031, 0, 0, 3.42373, -161.509, 3.42373, 18.491
2, 300.00000, 239.748, -150.024, 0, 0, 0.242605, -161.502, 0.242605, 18.4979
2, 600.00000, 239.708, -150.018, 0, 0, 0.242642, -161.496, 0.242642, 18.5037
2, 900.00000, 239.667, -150.024, 0, 0, 0.242683, -161.502, 0.242683, 18.4976
2, 1200.00000, 239.67, -150.03, 0, 0, 0.242681, -161.509, 0.242681, 18.4914
2, 1500.00000, 239.635, -150.028, 0, 0, 0.242716, -161.506, 0.242716, 18.494
2, 1800.00000, 239.675, -149.993, 0, 0, 0.242677, -161.472, 0.242677, 18.5279
2, 2100.00000, 239.71, -150.033, 0, 0, 0.24264, -161.511, 0.24264, 18.4891
2, 2400.00000, 239.691, -150.024, 0, 0, 0.242659, -161.502, 0.242659, 18.498
2, 2700.00000, 239.545, -150.012, 0, 0, 0.242806, -161.491, 0.242806, 18.5092
2, 3000.00000, 239.591, -150.03, 0, 0, 0.242761, -161.508, 0.242761, 18.4921
2, 3300.00000, 239.59, -150.046, 0, 0, 0.242762, -161.525, 0.242762, 18.4753
3, 0.00000, 239.51, -150.047, 0, 0, 0.575153, -161.526, 0.575153, 18.4743
3, 300.00000, 239.669, -150.044, 0, 0, 1.07291, -161.523, 1.07291, 18.4772
3, 600.00000, 239.72, -150.047, 0, 0, 1.07268, -161.526, 1.07268, 18.4745
3, 900.00000, 239.679, -150.027, 0, 0, 0.574746, -161.505, 0.574746, 18.4948
3, 1200.00000, 239.743, -150.003, 0, 0, 0.242607, -161.481, 0.242607, 18.5186
3, 1500.00000, 239.657, -150.006, 0, 0, 0.242693, -161.484, 0.242693, 18.5157
3, 1800.00000, 239.765, -150.026, 0, 0, 0.242585, -161.505, 0.242585, 18.4953
3, 2100.00000, 239.981, -150.033, 0, 0, 0.242367, -161.511, 0.242367, 18.4891
3, 2400.00000, 239.78, -150.032, 0, 0, 1.11496, -161.51, 1.11496, 18.4897
3, 2700.00000, 239.762, -150.031, 0, 0, 1.11505, -161.509, 1.11505, 18.4905
3, 3000.00000, 239.679, -150.015, 0, 0, 1.11544, -161.494, 1.11544, 18.5062
3, 3300.00000, 239.532, -150.003, 0, 0, 1.11612, -161.481, 1.11612, 18.5189
4, 0.00000, 239.674, -150.006, 0, 0, 0.591791, -161.484, 0.591791, 18.5159
4, 300.00000, 239.978, -150.035, 0, 0, 0.443071, -161.513, 0.443071, 18.4872
4, 600.00000, 239.936, -150.04, 0, 0, 0.744247, -161.519, 0.744247, 18.4813
4, 900.00000, 239.991, -150.04, 0, 0, 0.744076, -161.518, 0.744076, 18.4817
4, 1200.00000, 239.812, -150.04, 0, 0, 0.74463, -161.519, 0.74463, 18.4814
4, 1500.00000, 239.837, -150.01, 0, 0, 0.34292, -161.489, 0.34292, 18.5114
4, 1800.00000, 239.85, -150.003, 0, 0, 0.242498, -161.482, 0.242498, 18.5185
4, 2100.00000, 239.916, -150.017, 0, 0, 0.242432, -161.495, 0.242432, 18.5049
4, 2400.00000, 239.847, -150.006, 0, 0, 0.740266, -161.485, 0.740266, 18.5152
4, 2700.00000, 239.847, -150.006, 0, 0, 1.07211, -161.484, 1.07211, 18.516
4, 3000.00000, 239.955, -150.012, 0, 0, 1.07163, -161.49, 1.07163, 18.5099
4, 3300.00000, 240.044, -149.989, 0, 0, 0.408089, -161.467, 0.408089, 18.533
5, 0.00000, 239.868, -149.982, 0, 0, 1.11456, -161.46, 1.11456, 18.5396
5, 300.00000, 240.05, -149.985, 0, 0, 1.11371, -161.463, 1.11371, 18.5366
5, 600.00000, 240.042, -149.968, 0, 0, 1.11375, -161.446, 1.11375, 18.554
5, 900.00000, 240.124, -149.96, 0, 0, 1.11337, -161.439, 1.11337, 18.5612
5, 1200.00000, 240.404, -149.951, 0, 0, 0.589995, -161.429, 0.589995, 18.571
5, 1500.00000, 240.484, -149.94, 0, 0, 0.241859, -161.419, 0.241859, 18.5814
5, 1800.00000, 240.7, -149.924, 0, 0, 0.241642, -161.402, 0.241642, 18.5975
5, 2100.00000, 240.978, -149.876, 0, 0, 0.241363, -161.354, 0.241363, 18.6456
5, 2400.00000, 241.131, -149.873, 0, 0, 0.24121, -161.351, 0.24121, 18.6489
5, 2700.00000, 241.002, -149.92, 0, 0, 0.24134, -161.398, 0.24134, 18.6022
5, 3000.00000, 241.394, -149.852, 0, 0, 0.570663, -161.331, 0.570663, 18.6689
5, 3300.00000, 241.464, -149.936, 0, 0, 1.06493, -161.413, 1.06493, 18.5865
6, 0.00000, 241.852, -150.033, 0, 0, 1.56108, -161.51, 1.56108, 18.4902
6, 300.00000, 243.058, -149.959, 0, 0, 1.06209, -161.438, 1.06209, 18.5623
6, 600.00000, 243.33, -150.027, 0, 0, 0.733866, -161.504, 0.733866, 18.4959
6, 900.00000, 244.773, -149.823, 0, 0, 1.38738, -161.302, 1.38738, 18.6983
6, 1200.00000, 243.733, -149.757, 0, 0, 1.09694, -161.237, 1.09694, 18.7634
6, 1500.00000, 243.441, -149.677, 0, 0, 1.09822, -161.156, 1.09822, 18.8439
6, 1800.00000, 243.94, -149.58, 0, 0, 1.09592, -161.059, 1.09592, 18.9408
6, 2100.00000, 243.44, -149.714, 0, 0, 0.582649, -161.192, 0.582649, 18.8083
6, 2400.00000, 244.113, -149.794, 0, 0, 0.238255, -161.27, 0.238255, 18.7298
6, 2700.00000, 245.318, -149.798, 0, 0, 1.03979, -161.275, 1.03979, 18.7248
6, 3000.00000, 244.995, -150.014, 0, 0, 1.05297, -161.489, 1.05297, 18.5109
6, 3300.00000, 244.041, -150.066, 0, 0, 1.13319, -161.543, 1.13319, 18.4568
7, 0.00000, 244.734, -149.889, 0, 0, 1.1182, -161.371, 1.1182, 18.629
7, 300.00000, 245.447, -149.776, 0, 0, 0.723335, -161.256, 0.723335, 18.7439
7, 600.00000, 245.025, -149.931, 0, 0, 1.04951, -161.406, 1.04951, 18.594
7, 900.00000, 246.281, -149.711, 0, 0, 1.04411, -161.189, 1.04411, 18.8106
7, 1200.00000, 244.03, -149.612, 0, 0, 0.401421, -161.09, 0.401421, 18.91
7, 1500.00000, 247.067, -149.467, 0, 0, 1.0821, -160.945, 1.0821, 19.0548
7, 1800.00000, 248.223, -149.362, 0, 0, 1.07705, -160.84, 1.07705, 19.1597
7, 2100.00000, 247.735, -149.262, 0, 0, 1.07916, -160.741, 1.07916, 19.2593
7, 2400.00000, 249.762, -149.134, 0, 0, 1.07042, -160.613, 1.07042, 19.3871
7, 2700.00000, 247.463, -149.524, 0, 0, 1.14714, -161.002, 1.14714, 18.9982
7, 3000.00000, 242.631, -150.278, 0, 0, 0.794858, -161.756, 0.794858, 18.2445
7, 3300.00000, 246.089, -149.815, 0, 0, 1.07727, -161.294, 1.07727, 18.7059
8, 0.00000, 246.445, -149.352, 0, 0, 1.74813, -160.831, 1.74813, 19.1693
8, 300.00000, 247.701, -149.111, 0, 0, 1.88346, -160.59, 1.88346, 19.41
8, 600.00000, 246.798, -149.234, 0, 0, 1.99286, -160.713, 1.99286, 19.2875
8, 900.00000, 245.703, -149.498, 0, 0, 1.51169, -160.976, 1.51169, 19.0243
8, 1200.00000, 246.968, -149.836, 0, 0, 2.14852, -161.314, 2.14852, 18.6861
8, 1500.00000, 245.913, -149.691, 0, 0, 1.04566, -161.169, 1.04566, 18.8309
8, 1800.00000, 247.852, -149.507, 0, 0, 1.03749, -160.986, 1.03749, 19.0141
8, 2100.00000, 242.652, -149.789, 0, 0, 1.10177, -161.267, 1.10177, 18.7331
8, 2400.00000, 239.238, -150.011, 0, 0, 1.11749, -161.489, 1.11749, 18.5112
8, 2700.00000, 243.883, -149.561, 0, 0, 1.09621, -161.04, 1.09621, 18.9605
8, 3000.00000, 247.031, -149.317, 0, 0, 1.3747, -160.795, 1.3747, 19.2045
8, 3300.00000, 248.67, -149.113, 0, 0, 1.0546, -160.592, 1.0546, 19.4078
9, 0.00000, 248.838, -149.035, 0, 0, 0.717623, -160.514, 0.717623, 19.4861
9, 300.00000, 249.257, -149.114, 0, 0, 1.97321, -160.592, 1.97321, 19.4083
9, 600.00000, 249.59, -149.312, 0, 0, 1.48816, -160.789, 1.48816, 19.2105
9, 900.00000, 249.687, -149.116, 0, 0, 1.48758, -160.595, 1.48758, 19.4051
9, 1200.00000, 248.789, -149.106, 0, 0, 1.36578, -160.585, 1.36578, 19.4154
9, 1500.00000, 250.092, -149.054, 0, 0, 0.232571, -160.532, 0.232571, 19.468
9, 1800.00000, 248.014, -148.93, 0, 0, 0.234514, -160.409, 0.234514, 19.591
9, 2100.00000, 248.802, -149.286, 0, 0, 0.233772, -160.763, 0.233772, 19.2371
9, 2400.00000, 249.182, -149.25, 0, 0, 0.552833, -160.728, 0.552833, 19.272
9, 2700.00000, 248.751, -149.268, 0, 0, 1.03374, -160.746, 1.03374, 19.2538
9, 3000.00000, 248.635, -149.198, 0, 0, 1.03422, -160.676, 1.03422, 19.3236
9, 3300.00000, 250.28, -148.96, 0, 0, 0.910011, -160.439, 0.910011, 19.561
10, 0.00000, 244.388, -149.443, 0, 0, 1.58662, -160.921, 1.58662, 19.079
10, 300.00000, 248.224, -149.359, 0, 0, 1.56215, -160.837, 1.56215, 19.1625
10, 600.00000, 252.302, -148.966, 0, 0, 1.53693, -160.446, 1.53693, 19.554
10, 900.00000, 251.006, -149.065, 0, 0, 1.16103, -160.543, 1.16103, 19.4569
10, 1200.00000, 248.268, -149.116, 0, 0, 0.402787, -160.594, 0.402787, 19.4059
10, 1500.00000, 246.037, -149.249, 0, 0, 0.236399, -160.727, 0.236399, 19.2725
10, 1800.00000, 254.267, -148.681, 0, 0, 0.228747, -160.16, 0.228747, 19.8403
10, 2100.00000, 252.329, -148.716, 0, 0, 0.2305, -160.194, 0.2305, 19.8061
10, 2400.00000, 247.787, -149.224, 0, 0, 0.234727, -160.702, 0.234727, 19.298
10, 2700.00000, 253.297, -148.728, 0, 0, 0.229639, -160.208, 0.229639, 19.7918
10, 3000.00000, 252.618, -148.833, 0, 0, 0.230241, -160.311, 0.230241, 19.6887
10, 3300.00000, 251.256, -148.931, 0, 0, 0.231487, -160.409, 0.231487, 19.5908
11, 0.00000, 253.525, -148.75, 0, 0, 0.229425, -160.229, 0.229425, 19.7713
11, 300.00000, 249.047, -149.177, 0, 0, 1.00217, -160.654, 1.00217, 19.3458
11, 600.00000, 242.056, -149.902, 0, 0, 1.60192, -161.38, 1.60192, 18.6199
11, 900.00000, 242.153, -150.094, 0, 0, 1.6013, -161.569, 1.6013, 18.4313
11, 1200.00000, 250.297, -149.262, 0, 0, 1.54927, -160.742, 1.54927, 19.258
11, 1500.00000, 253.38, -148.971, 0, 0, 1.07208, -160.451, 1.07208, 19.5492
11, 1800.00000, 253.071, -148.819, 0, 0, 1.01608, -160.298, 1.01608, 19.702
11, 2100.00000, 253.751, -148.786, 0, 0, 1.01338, -160.265, 1.01338, 19.7352
11, 2400.00000, 253.424, -148.811, 0, 0, 0.700675, -160.29, 0.700675, 19.7099
11, 2700.00000, 252.057, -148.897, 0, 0, 0.230751, -160.375, 0.230751, 19.6245
11, 3000.00000, 242.709, -149.751, 0, 0, 0.239641, -161.229, 0.239641, 18.7705
11, 3300.00000, 245.532, -149.532, 0, 0, 0.236888, -161.01, 0.236888, 18.9897
12, 0.00000, 247.309, -149.465, 0, 0, 0.235186, -160.943, 0.235186, 19.0568
12, 300.00000, 244.198, -149.743, 0, 0, 0.23818, -161.221, 0.23818, 18.779
12, 600.00000, 248.516, -149.386, 0, 0, 0.234047, -160.865, 0.234047, 19.1352
12, 900.00000, 250.852, -149.155, 0, 0, 0.231868, -160.634, 0.231868, 19.3661
12, 1200.00000, 244.791, -149.669, 0, 0, 0.237601, -161.148, 0.237601, 18.8524
12, 1500.00000, 244.147, -149.674, 0, 0, 0.238244, -161.153, 0.238244, 18.8465
12, 1800.00000, 243.777, -149.895, 0, 0, 0.238601, -161.369, 0.238601, 18.6308
12, 2100.00000, 245.422, -149.742, 0, 0, 0.399146, -161.22, 0.399146, 18.7795
12, 2400.00000, 247.941, -149.556, 0, 0, 1.03712, -161.035, 1.03712, 18.9655
12, 2700.00000, 252.623, -148.915, 0, 0, 1.01794, -160.396, 1.01794, 19.6039
12, 3000.00000, 251.198, -149.005, 0, 0, 0.706809, -160.483, 0.706809, 19.5172
12, 3300.00000, 244.949, -149.798, 0, 0, 0.408246, -161.276, 0.408246, 18.7242
13, 0.00000, 243.539, -149.902, 0, 0, 1.09783, -161.379, 1.09783, 18.6208
13, 300.00000, 247.71, -149.394, 0, 0, 1.27373, -160.873, 1.27373, 19.1265
13, 600.00000, 253.919, -148.693, 0, 0, 1.52707, -160.171, 1.52707, 19.8288
13, 900.00000, 253.455, -148.789, 0, 0, 1.52987, -160.267, 1.52987, 19.7333
13, 1200.00000, 253.197, -148.787, 0, 0, 0.870503, -160.265, 0.870503, 19.7346
13, 1500.00000, 253.666, -148.799, 0, 0, 0.324228, -160.277, 0.324228, 19.7233
13, 1800.00000, 253.42, -148.805, 0, 0, 0.229524, -160.284, 0.229524, 19.7163
13, 2100.00000, 254.401, -148.511, 0, 0, 0.228632, -159.991, 0.228632, 20.0095
13, 2400.00000, 253.75, -148.673, 0, 0, 0.229211, -160.151, 0.229211, 19.8491
13, 2700.00000, 252.596, -148.771, 0, 0, 0.230259, -160.249, 0.230259, 19.7508
13, 3000.00000, 249.754, -149.082, 0, 0, 0.392216, -160.559, 0.392216, 19.4408
13, 3300.00000, 252.509, -148.887, 0, 0, 1.01838, -160.366, 1.01838, 19.634
14, 0.00000, 252.631, -148.867, 0, 0, 1.01784, -160.345, 1.01784, 19.6547
14, 300.00000, 251.442, -148.856, 0, 0, 2.47143, -160.334, 2.47143, 19.6655
14, 600.00000, 251.986, -148.791, 0, 0, 2.33575, -160.27, 2.33575, 19.73
14, 900.00000, 247.148, -149.022, 0, 0, 2.1634, -160.5, 2.1634, 19.5003
14, 1200.00000, 244.648, -149.188, 0, 0, 1.98868, -160.666, 1.98868, 19.3341
14, 1500.00000, 250.039, -149, 0, 0, 1.65696, -160.479, 1.65696, 19.5213
14, 1800.00000, 251.163, -149, 0, 0, 1.09045, -160.478, 1.09045, 19.5219
14, 2100.00000, 250.645, -149.013, 0, 0, 1.35569, -160.491, 1.35569, 19.5086
14, 2400.00000, 252.374, -149.041, 0, 0, 1.38686, -160.519, 1.38686, 19.4808
14, 2700.00000, 249.119, -149.104, 0, 0, 1.56877, -160.582, 1.56877, 19.4176
14, 3000.00000, 248.719, -149.176, 0, 0, 1.57132, -160.654, 1.57132, 19.3457
14, 3300.00000, 248.702, -149.293, 0, 0, 1.57143, -160.771, 1.57143, 19.2291
15, 0.00000, 250.172, -149.139, 0, 0, 1.5622, -160.618, 1.5622, 19.3819
15, 300.00000, 249.216, -149.011, 0, 0, 0.233383, -160.49, 0.233383, 19.5104
15, 600.00000, 242.778, -149.646, 0, 0, 0.239573, -161.124, 0.239573, 18.8757
15, 900.00000, 241.885, -149.82, 0, 0, 1.10529, -161.298, 1.10529, 18.7024
15, 1200.00000, 242.409, -149.788, 0, 0, 1.89339, -161.266, 1.89339, 18.7341
15, 1500.00000, 243.01, -149.746, 0, 0, 2.41437, -161.224, 2.41437, 18.7759
15, 1800.00000, 245.392, -149.385, 0, 0, 2.39102, -160.864, 2.39102, 19.1361
15, 2100.00000, 249.85, -148.977, 0, 0, 1.20893, -160.456, 1.20893, 19.5438
15, 2400.00000, 247.974, -149.246, 0, 0, 0.234553, -160.724, 0.234553, 19.2765
15, 2700.00000, 246.093, -149.487, 0, 0, 0.236346, -160.965, 0.236346, 19.0347
15, 3000.00000, 244.754, -149.595, 0, 0, 0.237639, -161.073, 0.237639, 18.9272
15, 3300.00000, 245.735, -149.561, 0, 0, 0.236691, -161.039, 0.236691, 18.9605
16, 0.00000, 248.571, -149.213, 0, 0, 0.233993, -160.692, 0.233993, 19.308
16, 300.00000, 248.418, -149.338, 0, 0, 0.234135, -160.817, 0.234135, 19.1835
16, 600.00000, 244.747, -149.607, 0, 0, 0.237645, -161.085, 0.237645, 18.9145
16, 900.00000, 243.818, -149.534, 0, 0, 0.238564, -161.014, 0.238564, 18.9862
16, 1200.00000, 244.827, -149.521, 0, 0, 0.23755, -160.998, 0.23755, 19.002
16, 1500.00000, 245.986, -149.404, 0, 0, 1.38137, -160.882, 1.38137, 19.1178
16, 1800.00000, 246.016, -149.414, 0, 0, 2.06142, -160.892, 2.06142, 19.1083
16, 2100.00000, 242.739, -149.832, 0, 0, 2.30868, -161.31, 2.30868, 18.6895
16, 2400.00000, 244.025, -149.549, 0, 0, 2.40859, -161.028, 2.40859, 18.9723
16, 2700.00000, 240.032, -149.863, 0, 0, 2.90777, -161.342, 2.90777, 18.6583
16, 3000.00000, 240.332, -149.68, 0, 0, 8.33623, -161.158, 8.33623, 18.8422
16, 3300.00000, 243.254, -149.984, 0, 0, 3.12767, -161.462, 3.12767, 18.5382
17, 0.00000, 243.64, -150.122, 0, 0, 3.51803, -161.595, 3.51803, 18.4047
17, 300.00000, 243.449, -150.437, 0, 0, 1.06044, -161.915, 1.06044, 18.0847
17, 600.00000, 242.488, -150.26, 0, 0, 0.736415, -161.738, 0.736415, 18.2617
17, 900.00000, 241.219, -150.129, 0, 0, 0.440787, -161.61, 0.440787, 18.3898
17, 1200.00000, 240.042, -150.419, 0, 0, 0.242304, -161.897, 0.242304, 18.1026
17, 1500.00000, 239.614, -150.223, 0, 0, 0.242738, -161.702, 0.242738, 18.2984
17, 1800.00000, 239.919, -150.294, 0, 0, 0.242429, -161.771, 0.242429, 18.2292
17, 2100.00000, 238.625, -150.23, 0, 0, 0.24373, -161.71, 0.24373, 18.2899
17, 2400.00000, 240.132, -150.466, 0, 0, 0.242215, -161.944, 0.242215, 18.0561
17, 2700.00000, 240.006, -150.359, 0, 0, 0.24234, -161.838, 0.24234, 18.1623
17, 3000.00000, 240.874, -150.283, 0, 0, 0.241467, -161.761, 0.241467, 18.2386
17, 3300.00000, 237.628, -150.122, 0, 0, 0.244765, -161.6, 0.244765, 18.4
18, 0.00000, 240.174, -149.949, 0, 0, 0.774102, -161.426, 0.774102, 18.5738
18, 300.00000, 238.64, -149.933, 0, 0, 3.86102, -161.413, 3.86102, 18.5869
18, 600.00000, 238.474, -149.768, 0, 0, 4.42006, -161.246, 4.42006, 18.754
18, 900.00000, 239.869, -149.6, 0, 0, 3.64144, -161.078, 3.64144, 18.922
18, 1200.00000, 238.836, -149.688, 0, 0, 2.7155, -161.168, 2.7155, 18.8324
18, 1500.00000, 237.263, -149.965, 0, 0, 2.47637, -161.443, 2.47637, 18.557
18, 1800.00000, 237.512, -149.9, 0, 0, 1.80017, -161.377, 1.80017, 18.6227
18, 2100.00000, 236.777, -150.158, 0, 0, 1.75744, -161.637, 1.75744, 18.3635
18, 2400.00000, 239.297, -150.003, 0, 0, 1.56496, -161.481, 1.56496, 18.5188
18, 2700.00000, 239.548, -150.108, 0, 0, 1.68259, -161.586, 1.68259, 18.4139
18, 3000.00000, 239.152, -149.964, 0, 0, 1.57273, -161.443, 1.57273, 18.5574
18, 3300.00000, 239.796, -149.994, 0, 0, 1.11918, -161.472, 1.11918, 18.528
19, 0.00000, 240.208, -150.101, 0, 0, 1.11723, -161.579, 1.11723, 18.4212
19, 300.00000, 240.657, -150.088, 0, 0, 1.11514, -161.567, 1.11514, 18.4329
19, 600.00000, 240.18, -150.254, 0, 0, 1.11736, -161.731, 1.11736, 18.2692
19, 900.00000, 239.398, -150.449, 0, 0, 1.54299, -161.928, 1.54299, 18.0724
19, 1200.00000, 240.124, -150.46, 0, 0, 5.29328, -161.937, 5.29328, 18.0626
19, 1500.00000, 237.807, -150.138, 0, 0, 13.7755, -161.617, 13.7755, 18.3831
19, 1800.00000, 235.773, -150.212, 0, 0, 13.741, -161.69, 13.741, 18.3099
19, 2100.00000, 233.658, -149.902, 0, 0, 13.4025, -161.38, 13.4025, 18.6198
19, 2400.00000, 238.2, -149.985, 0, 0, 2.4675, -161.463, 2.4675, 18.5368
19, 2700.00000, 239.424, -149.999, 0, 0, 3.14531, -161.477, 3.14531, 18.523
19, 3000.00000, 238.954, -150.203, 0, 0, 2.76118, -161.681, 2.76118, 18.3185
19, 3300.00000, 239.263, -150.31, 0, 0, 3.07492, -161.788, 3.07492, 18.2122
20, 0.00000, 238.767, -150.266, 0, 0, 3.08121, -161.745, 3.08121, 18.2548
20, 300.00000, 239.192, -150.223, 0, 0, 3.16127, -161.701, 3.16127, 18.2993
20, 600.00000, 239.448, -150.186, 0, 0, 3.02653, -161.665, 3.02653, 18.3354
20, 900.00000, 239.606, -150.106, 0, 0, 2.82353, -161.585, 2.82353, 18.4147
20, 1200.00000, 238.721, -150.404, 0, 0, 2.83397, -161.882, 2.83397, 18.1182
20, 1500.00000, 238.556, -150.35, 0, 0, 2.83591, -161.829, 2.83591, 18.1707
20, 1800.00000, 238.698, -150.433, 0, 0, 3.45411, -161.911, 3.45411, 18.0885
20, 2100.00000, 238.652, -150.273, 0, 0, 3.45478, -161.751, 3.45478, 18.2487
20, 2400.00000, 238.288, -150.372, 0, 0, 4.10748, -161.849, 4.10748, 18.151
20, 2700.00000, 237.933, -150.259, 0, 0, 3.3905, -161.738, 3.3905, 18.2616
20, 3000.00000, 238.53, -150.323, 0, 0, 3.5113, -161.802, 3.5113, 18.1984
20, 3300.00000, 238.668, -150.403, 0, 0, 3.11422, -161.881, 3.11422, 18.1187
21, 0.00000, 238.046, -150.508, 0, 0, 3.67779, -161.985, 3.67779, 18.015
21, 300.00000, 236.181, -150.452, 0, 0, 3.77864, -161.93, 3.77864, 18.0697
21, 600.00000, 237.849, -150.74, 0, 0, 3.56686, -162.217, 3.56686, 17.7826
21, 900.00000, 237.088, -150.592, 0, 0, 2.98433, -162.071, 2.98433, 17.9293
21, 1200.00000, 236.605, -150.784, 0, 0, 3.41998, -162.262, 3.41998, 17.738
21, 1500.00000, 237.295, -150.619, 0, 0, 3.50465, -162.097, 3.50465, 17.9025
21, 1800.00000, 236.86, -150.528, 0, 0, 3.74952, -162.007, 3.74952, 17.9926
